# vsim -t 1ps -voptargs="+acc" "+nowarnTFMPC" -c -do "run -all; quit -f" tb_acquisition_chain -l ../sim/logs/integration_sim.log 
# Start time: 12:01:49 on Apr 10,2026
# ** Note: (vsim-8009) Loading existing optimized design _opt
# //  Questa Sim-64
# //  Version 10.7c linux_x86_64 Aug 17 2018
# //
# //  Copyright 1991-2018 Mentor Graphics Corporation
# //  All Rights Reserved.
# //
# //  QuestaSim and its associated documentation contain trade
# //  secrets and commercial or financial information that are the property of
# //  Mentor Graphics Corporation and are privileged, confidential,
# //  and exempt from disclosure under the Freedom of Information Act,
# //  5 U.S.C. Section 552. Furthermore, this information
# //  is prohibited from disclosure under the Trade Secrets Act,
# //  18 U.S.C. Section 1905.
# //
# Loading sv_std.std
# Loading work.axi_stream_pkg(fast)
# Loading work.tb_acquisition_chain(fast)
# Loading work.axi4_write_simple_if(fast)
# Loading work.axis_trigger(fast)
# Loading work.trigger_combiner(fast)
# Loading work.axis_scope(fast)
# Loading work.axis_ram_writer(fast)
# run -all
# 
# 
# +============================================================+
# |     TESTBENCH DE INTEGRACION: Cadena MCPHA                 |
# +============================================================+
# 
# ========== TEST: basic_single_trigger ==========
# [DEBUG] arm_scope: arm=1, esperando que scope_status.armed=1...
# [DEBUG @156000] scope_status.armed: 0 -> 1
# [DEBUG] arm_scope: scope_status.armed=1
# [DEBUG] Configuracion completa. Enviando rampa...
# [DEBUG] scope_config.arm=0, scope_status.armed=1, trig0_config.threshold=500
# [DEBUG] Backpressure inicial: ch0_tready=1, trig0_m_tready=1, scope_out_tready=1
# [DEBUG @204000] CH0->TRIG #0: data=0x0000
# [DEBUG @220000] TRIG->SCOPE #0: data=0x0000
# [DEBUG @228000] TRIG->SCOPE #1: data=0x0001
# [DEBUG @236000] TRIG->SCOPE #2: data=0x0002
# [DEBUG @244000] TRIG->SCOPE #3: data=0x0003
# [DEBUG @252000] TRIG->SCOPE #4: data=0x0004
# [DEBUG @1004000] CH0->TRIG #100: data=0x0064
# [DEBUG @1020000] TRIG->SCOPE #100: data=0x0064
# [DEBUG @1804000] CH0->TRIG #200: data=0x00c8
# [DEBUG @1820000] TRIG->SCOPE #200: data=0x00c8
# [DEBUG @2604000] CH0->TRIG #300: data=0x012c
# [DEBUG @2620000] TRIG->SCOPE #300: data=0x012c
# [DEBUG @3404000] CH0->TRIG #400: data=0x0190
# [DEBUG @3420000] TRIG->SCOPE #400: data=0x0190
# [DEBUG @4204000] CH0->TRIG #500: data=0x01f4
# [DEBUG @4220000] >>> PRIMER trig0_out DETECTADO <<<
# [DEBUG @4220000] TRIG->SCOPE #500: data=0x01f4
# [DEBUG @4228000] >>> scope_trigger ACTIVADO <<<
# [DEBUG @4236000] scope_status.armed: 1 -> 0
# [DEBUG @4236000] scope_status.triggered: 0 -> 1
# [DEBUG @5004000] CH0->TRIG #600: data=0x0258
# [DEBUG @5020000] TRIG->SCOPE #600: data=0x0258
# [DEBUG] Rampa enviada. Stats: CH0=700, TRIG=2, SCOPE=698, AXI_W=0
# [DEBUG] axi_memory.size()=0
# [DEBUG] wait_capture_done: Esperando scope_status.done...
# [DEBUG @5820000] TRIG->SCOPE #700: data=0x02ba
# [DEBUG @5844000] SCOPE->RW: data=0x0000 last=0 (total AXI W=0)
# [DEBUG @5852000] SCOPE->RW: data=0x0191 last=0 (total AXI W=0)
# [DEBUG @5860000] SCOPE->RW: data=0x0192 last=0 (total AXI W=0)
# [DEBUG @5868000] SCOPE->RW: data=0x0193 last=0 (total AXI W=0)
# [DEBUG @5876000] SCOPE->RW: data=0x0194 last=0 (total AXI W=0)
# [DEBUG @5884000] SCOPE->RW: data=0x0195 last=0 (total AXI W=0)
# [DEBUG @5892000] SCOPE->RW: data=0x0196 last=0 (total AXI W=0)
# [DEBUG @5900000] SCOPE->RW: data=0x0197 last=0 (total AXI W=0)
# [DEBUG @5908000] SCOPE->RW: data=0x0198 last=0 (total AXI W=0)
# [DEBUG @5916000] SCOPE->RW: data=0x0199 last=0 (total AXI W=0)
# [DEBUG @5924000] SCOPE->RW: data=0x019a last=0 (total AXI W=0)
# [DEBUG @5932000] SCOPE->RW: data=0x019b last=0 (total AXI W=0)
# [DEBUG @5940000] SCOPE->RW: data=0x019c last=0 (total AXI W=0)
# [DEBUG @5948000] SCOPE->RW: data=0x019d last=0 (total AXI W=0)
# [DEBUG @5956000] SCOPE->RW: data=0x019e last=0 (total AXI W=0)
# [DEBUG @5964000] SCOPE->RW: data=0x019f last=0 (total AXI W=0)
# [DEBUG @5972000] SCOPE->RW: data=0x01a0 last=0 (total AXI W=0)
# [DEBUG @5980000] SCOPE->RW: data=0x01a1 last=0 (total AXI W=0)
# [DEBUG @5988000] SCOPE->RW: data=0x01a2 last=0 (total AXI W=0)
# [DEBUG @5996000] SCOPE->RW: data=0x01a3 last=0 (total AXI W=0)
# [DEBUG @6004000] SCOPE->RW: data=0x01a4 last=0 (total AXI W=0)
# [DEBUG @6012000] SCOPE->RW: data=0x01a5 last=0 (total AXI W=0)
# [DEBUG @6020000] SCOPE->RW: data=0x01a6 last=0 (total AXI W=0)
# [DEBUG @6028000] SCOPE->RW: data=0x01a7 last=0 (total AXI W=0)
# [DEBUG @6036000] SCOPE->RW: data=0x01a8 last=0 (total AXI W=0)
# [DEBUG @6044000] SCOPE->RW: data=0x01a9 last=0 (total AXI W=0)
# [DEBUG @6052000] SCOPE->RW: data=0x01aa last=0 (total AXI W=0)
# [DEBUG @6060000] SCOPE->RW: data=0x01ab last=0 (total AXI W=0)
# [DEBUG @6068000] SCOPE->RW: data=0x01ac last=0 (total AXI W=0)
# [DEBUG @6076000] SCOPE->RW: data=0x01ad last=0 (total AXI W=0)
# [DEBUG @6084000] SCOPE->RW: data=0x01ae last=0 (total AXI W=0)
# [DEBUG @6092000] SCOPE->RW: data=0x01af last=0 (total AXI W=0)
# [DEBUG @6100000] SCOPE->RW: data=0x01b0 last=0 (total AXI W=0)
# [DEBUG @6108000] SCOPE->RW: data=0x01b1 last=0 (total AXI W=0)
# [DEBUG @6116000] SCOPE->RW: data=0x01b2 last=0 (total AXI W=0)
# [DEBUG @6124000] SCOPE->RW: data=0x01b3 last=0 (total AXI W=0)
# [DEBUG @6132000] SCOPE->RW: data=0x01b4 last=0 (total AXI W=0)
# [DEBUG @6140000] SCOPE->RW: data=0x01b5 last=0 (total AXI W=0)
# [DEBUG @6148000] SCOPE->RW: data=0x01b6 last=0 (total AXI W=0)
# [DEBUG @6156000] SCOPE->RW: data=0x01b7 last=0 (total AXI W=0)
# [DEBUG @6164000] SCOPE->RW: data=0x01b8 last=0 (total AXI W=0)
# [DEBUG @6172000] SCOPE->RW: data=0x01b9 last=0 (total AXI W=0)
# [DEBUG @6180000] SCOPE->RW: data=0x01ba last=0 (total AXI W=0)
# [DEBUG @6188000] SCOPE->RW: data=0x01bb last=0 (total AXI W=0)
# [DEBUG @6196000] SCOPE->RW: data=0x01bc last=0 (total AXI W=0)
# [DEBUG @6204000] SCOPE->RW: data=0x01bd last=0 (total AXI W=0)
# [DEBUG @6212000] SCOPE->RW: data=0x01be last=0 (total AXI W=0)
# [DEBUG @6220000] SCOPE->RW: data=0x01bf last=0 (total AXI W=0)
# [DEBUG @6228000] SCOPE->RW: data=0x01c0 last=0 (total AXI W=0)
# [DEBUG @6236000] SCOPE->RW: data=0x01c1 last=0 (total AXI W=0)
# [DEBUG @6244000] SCOPE->RW: data=0x01c2 last=0 (total AXI W=0)
# [DEBUG @6252000] SCOPE->RW: data=0x01c3 last=0 (total AXI W=0)
# [DEBUG @6260000] SCOPE->RW: data=0x01c4 last=0 (total AXI W=0)
# [DEBUG @6268000] SCOPE->RW: data=0x01c5 last=0 (total AXI W=0)
# [DEBUG @6276000] SCOPE->RW: data=0x01c6 last=0 (total AXI W=0)
# [DEBUG @6284000] SCOPE->RW: data=0x01c7 last=0 (total AXI W=0)
# [DEBUG @6292000] SCOPE->RW: data=0x01c8 last=0 (total AXI W=0)
# [DEBUG @6300000] SCOPE->RW: data=0x01c9 last=0 (total AXI W=0)
# [DEBUG @6308000] SCOPE->RW: data=0x01ca last=0 (total AXI W=0)
# [DEBUG @6316000] SCOPE->RW: data=0x01cb last=0 (total AXI W=0)
# [DEBUG @6324000] SCOPE->RW: data=0x01cc last=0 (total AXI W=0)
# [DEBUG @6332000] SCOPE->RW: data=0x01cd last=0 (total AXI W=0)
# [DEBUG @6340000] SCOPE->RW: data=0x01ce last=0 (total AXI W=0)
# [DEBUG @6348000] SCOPE->RW: data=0x01cf last=0 (total AXI W=0)
# [DEBUG @6356000] SCOPE->RW: data=0x01d0 last=0 (total AXI W=0)
# [DEBUG @6364000] SCOPE->RW: data=0x01d1 last=0 (total AXI W=0)
# [DEBUG @6372000] SCOPE->RW: data=0x01d2 last=0 (total AXI W=0)
# [DEBUG @6380000] AXI AW: addr=0x10000000 len=15
# [DEBUG @6380000] SCOPE->RW: data=0x01d3 last=0 (total AXI W=0)
# [DEBUG @6388000] SCOPE->RW: data=0x01d4 last=0 (total AXI W=0)
# [DEBUG @6388000] AXI W #0: data=0x0193019201910000 strb=0xff last=0
# [DEBUG @6396000] AXI W #1: data=0x0197019601950194 strb=0xff last=0
# [DEBUG @6396000] SCOPE->RW: data=0x01d5 last=0 (total AXI W=2)
# [DEBUG @6404000] SCOPE->RW: data=0x01d6 last=0 (total AXI W=2)
# [DEBUG @6404000] AXI W #2: data=0x019b019a01990198 strb=0xff last=0
# [DEBUG @6412000] AXI W #3: data=0x019f019e019d019c strb=0xff last=0
# [DEBUG @6412000] SCOPE->RW: data=0x01d7 last=0 (total AXI W=4)
# [DEBUG @6420000] SCOPE->RW: data=0x01d8 last=0 (total AXI W=4)
# [DEBUG @6420000] AXI W #4: data=0x01a301a201a101a0 strb=0xff last=0
# [DEBUG @6428000] AXI W #5: data=0x01a701a601a501a4 strb=0xff last=0
# [DEBUG @6428000] SCOPE->RW: data=0x01d9 last=0 (total AXI W=6)
# [DEBUG @6436000] SCOPE->RW: data=0x01da last=0 (total AXI W=6)
# [DEBUG @6436000] AXI W #6: data=0x01ab01aa01a901a8 strb=0xff last=0
# [DEBUG @6444000] AXI W #7: data=0x01af01ae01ad01ac strb=0xff last=0
# [DEBUG @6444000] SCOPE->RW: data=0x01db last=0 (total AXI W=8)
# [DEBUG @6452000] SCOPE->RW: data=0x01dc last=0 (total AXI W=8)
# [DEBUG @6452000] AXI W #8: data=0x01b301b201b101b0 strb=0xff last=0
# [DEBUG @6460000] AXI W #9: data=0x01b701b601b501b4 strb=0xff last=0
# [DEBUG @6460000] SCOPE->RW: data=0x01dd last=0 (total AXI W=10)
# [DEBUG @6468000] SCOPE->RW: data=0x01de last=0 (total AXI W=10)
# [DEBUG @6468000] AXI W #10: data=0x01bb01ba01b901b8 strb=0xff last=0
# [DEBUG @6476000] AXI W #11: data=0x01bf01be01bd01bc strb=0xff last=0
# [DEBUG @6476000] SCOPE->RW: data=0x01df last=0 (total AXI W=12)
# [DEBUG @6484000] SCOPE->RW: data=0x01e0 last=0 (total AXI W=12)
# [DEBUG @6484000] AXI W #12: data=0x01c301c201c101c0 strb=0xff last=0
# [DEBUG @6492000] AXI W #13: data=0x01c701c601c501c4 strb=0xff last=0
# [DEBUG @6492000] SCOPE->RW: data=0x01e1 last=0 (total AXI W=14)
# [DEBUG @6500000] SCOPE->RW: data=0x01e2 last=0 (total AXI W=14)
# [DEBUG @6500000] AXI W #14: data=0x01cb01ca01c901c8 strb=0xff last=0
# [DEBUG @6508000] AXI W #15: data=0x01cf01ce01cd01cc strb=0xff last=1
# [DEBUG @6508000] SCOPE->RW: data=0x01e3 last=0 (total AXI W=16)
# [DEBUG @6516000] SCOPE->RW: data=0x01e4 last=0 (total AXI W=16)
# [DEBUG @6524000] SCOPE->RW: data=0x01e5 last=0 (total AXI W=16)
# [DEBUG @6532000] SCOPE->RW: data=0x01e6 last=0 (total AXI W=16)
# [DEBUG @6540000] SCOPE->RW: data=0x01e7 last=0 (total AXI W=16)
# [DEBUG @6548000] SCOPE->RW: data=0x01e8 last=0 (total AXI W=16)
# [DEBUG @6556000] SCOPE->RW: data=0x01e9 last=0 (total AXI W=16)
# [DEBUG @6564000] SCOPE->RW: data=0x01ea last=0 (total AXI W=16)
# [DEBUG @6572000] SCOPE->RW: data=0x01eb last=0 (total AXI W=16)
# [DEBUG @6580000] SCOPE->RW: data=0x01ec last=0 (total AXI W=16)
# [DEBUG @6588000] SCOPE->RW: data=0x01ed last=0 (total AXI W=16)
# [DEBUG @6596000] SCOPE->RW: data=0x01ee last=0 (total AXI W=16)
# [DEBUG @6604000] SCOPE->RW: data=0x01ef last=0 (total AXI W=16)
# [DEBUG @6612000] SCOPE->RW: data=0x01f0 last=0 (total AXI W=16)
# [DEBUG @6620000] SCOPE->RW: data=0x01f1 last=0 (total AXI W=16)
# [DEBUG @6628000] SCOPE->RW: data=0x01f2 last=0 (total AXI W=16)
# [DEBUG @6636000] SCOPE->RW: data=0x01f3 last=0 (total AXI W=16)
# [DEBUG @6644000] SCOPE->RW: data=0x01f4 last=0 (total AXI W=16)
# [DEBUG @6652000] SCOPE->RW: data=0x01f5 last=0 (total AXI W=16)
# [DEBUG @6660000] SCOPE->RW: data=0x01f6 last=0 (total AXI W=16)
# [DEBUG @6668000] SCOPE->RW: data=0x01f7 last=0 (total AXI W=16)
# [DEBUG @6676000] SCOPE->RW: data=0x01f8 last=0 (total AXI W=16)
# [DEBUG @6684000] SCOPE->RW: data=0x01f9 last=0 (total AXI W=16)
# [DEBUG @6692000] SCOPE->RW: data=0x01fa last=0 (total AXI W=16)
# [DEBUG @6700000] SCOPE->RW: data=0x01fb last=0 (total AXI W=16)
# [DEBUG @6708000] SCOPE->RW: data=0x01fc last=0 (total AXI W=16)
# [DEBUG @6716000] SCOPE->RW: data=0x01fd last=0 (total AXI W=16)
# [DEBUG @6724000] SCOPE->RW: data=0x01fe last=0 (total AXI W=16)
# [DEBUG @6732000] SCOPE->RW: data=0x01ff last=0 (total AXI W=16)
# [DEBUG @6740000] SCOPE->RW: data=0x0200 last=0 (total AXI W=16)
# [DEBUG @6748000] SCOPE->RW: data=0x0201 last=0 (total AXI W=16)
# [DEBUG @6756000] SCOPE->RW: data=0x0202 last=0 (total AXI W=16)
# [DEBUG @6764000] SCOPE->RW: data=0x0203 last=0 (total AXI W=16)
# [DEBUG @6772000] SCOPE->RW: data=0x0204 last=0 (total AXI W=16)
# [DEBUG @6780000] SCOPE->RW: data=0x0205 last=0 (total AXI W=16)
# [DEBUG @6788000] SCOPE->RW: data=0x0206 last=0 (total AXI W=16)
# [DEBUG @6796000] SCOPE->RW: data=0x0207 last=0 (total AXI W=16)
# [DEBUG @6804000] SCOPE->RW: data=0x0208 last=0 (total AXI W=16)
# [DEBUG @6812000] SCOPE->RW: data=0x0209 last=0 (total AXI W=16)
# [DEBUG @6820000] SCOPE->RW: data=0x020a last=0 (total AXI W=16)
# [DEBUG @6828000] SCOPE->RW: data=0x020b last=0 (total AXI W=16)
# [DEBUG @6836000] SCOPE->RW: data=0x020c last=0 (total AXI W=16)
# [DEBUG @6844000] SCOPE->RW: data=0x020d last=0 (total AXI W=16)
# [DEBUG @6852000] SCOPE->RW: data=0x020e last=0 (total AXI W=16)
# [DEBUG @6860000] SCOPE->RW: data=0x020f last=0 (total AXI W=16)
# [DEBUG @6868000] SCOPE->RW: data=0x0210 last=0 (total AXI W=16)
# [DEBUG @6876000] SCOPE->RW: data=0x0211 last=0 (total AXI W=16)
# [DEBUG @6884000] SCOPE->RW: data=0x0212 last=0 (total AXI W=16)
# [DEBUG @6892000] AXI AW: addr=0x10000080 len=15
# [DEBUG @6892000] SCOPE->RW: data=0x0213 last=0 (total AXI W=16)
# [DEBUG @6900000] SCOPE->RW: data=0x0214 last=0 (total AXI W=16)
# [DEBUG @6900000] AXI W #16: data=0x01d301d201d101d0 strb=0xff last=0
# [DEBUG @6908000] AXI W #17: data=0x01d701d601d501d4 strb=0xff last=0
# [DEBUG @6908000] SCOPE->RW: data=0x0215 last=0 (total AXI W=18)
# [DEBUG @6916000] SCOPE->RW: data=0x0216 last=0 (total AXI W=18)
# [DEBUG @6916000] AXI W #18: data=0x01db01da01d901d8 strb=0xff last=0
# [DEBUG @6924000] AXI W #19: data=0x01df01de01dd01dc strb=0xff last=0
# [DEBUG @6924000] SCOPE->RW: data=0x0217 last=0 (total AXI W=20)
# [DEBUG @6932000] SCOPE->RW: data=0x0218 last=0 (total AXI W=20)
# [DEBUG @6932000] AXI W #20: data=0x01e301e201e101e0 strb=0xff last=0
# [DEBUG @6940000] AXI W #21: data=0x01e701e601e501e4 strb=0xff last=0
# [DEBUG @6940000] SCOPE->RW: data=0x0219 last=0 (total AXI W=22)
# [DEBUG @6948000] SCOPE->RW: data=0x021a last=0 (total AXI W=22)
# [DEBUG @6948000] AXI W #22: data=0x01eb01ea01e901e8 strb=0xff last=0
# [DEBUG @6956000] AXI W #23: data=0x01ef01ee01ed01ec strb=0xff last=0
# [DEBUG @6956000] SCOPE->RW: data=0x021b last=0 (total AXI W=24)
# [DEBUG @6964000] SCOPE->RW: data=0x021c last=0 (total AXI W=24)
# [DEBUG @6964000] AXI W #24: data=0x01f301f201f101f0 strb=0xff last=0
# [DEBUG @6972000] AXI W #25: data=0x01f701f601f501f4 strb=0xff last=0
# [DEBUG @6972000] SCOPE->RW: data=0x021d last=0 (total AXI W=26)
# [DEBUG @6980000] SCOPE->RW: data=0x021e last=0 (total AXI W=26)
# [DEBUG @6980000] AXI W #26: data=0x01fb01fa01f901f8 strb=0xff last=0
# [DEBUG @6988000] AXI W #27: data=0x01ff01fe01fd01fc strb=0xff last=0
# [DEBUG @6988000] SCOPE->RW: data=0x021f last=0 (total AXI W=28)
# [DEBUG @6996000] SCOPE->RW: data=0x0220 last=0 (total AXI W=28)
# [DEBUG @6996000] AXI W #28: data=0x0203020202010200 strb=0xff last=0
# [DEBUG @7004000] AXI W #29: data=0x0207020602050204 strb=0xff last=0
# [DEBUG @7004000] SCOPE->RW: data=0x0221 last=0 (total AXI W=30)
# [DEBUG @7012000] SCOPE->RW: data=0x0222 last=0 (total AXI W=30)
# [DEBUG @7012000] AXI W #30: data=0x020b020a02090208 strb=0xff last=0
# [DEBUG @7020000] AXI W #31: data=0x020f020e020d020c strb=0xff last=1
# [DEBUG @7020000] SCOPE->RW: data=0x0223 last=0 (total AXI W=32)
# [DEBUG @7028000] SCOPE->RW: data=0x0224 last=0 (total AXI W=32)
# [DEBUG @7036000] SCOPE->RW: data=0x0225 last=0 (total AXI W=32)
# [DEBUG @7044000] SCOPE->RW: data=0x0226 last=0 (total AXI W=32)
# [DEBUG @7052000] SCOPE->RW: data=0x0227 last=0 (total AXI W=32)
# [DEBUG @7060000] SCOPE->RW: data=0x0228 last=0 (total AXI W=32)
# [DEBUG @7068000] SCOPE->RW: data=0x0229 last=0 (total AXI W=32)
# [DEBUG @7076000] SCOPE->RW: data=0x022a last=0 (total AXI W=32)
# [DEBUG @7084000] SCOPE->RW: data=0x022b last=0 (total AXI W=32)
# [DEBUG @7092000] SCOPE->RW: data=0x022c last=0 (total AXI W=32)
# [DEBUG @7100000] SCOPE->RW: data=0x022d last=0 (total AXI W=32)
# [DEBUG @7108000] SCOPE->RW: data=0x022e last=0 (total AXI W=32)
# [DEBUG @7116000] SCOPE->RW: data=0x022f last=0 (total AXI W=32)
# [DEBUG @7124000] SCOPE->RW: data=0x0230 last=0 (total AXI W=32)
# [DEBUG @7132000] SCOPE->RW: data=0x0231 last=0 (total AXI W=32)
# [DEBUG @7140000] SCOPE->RW: data=0x0232 last=0 (total AXI W=32)
# [DEBUG @7148000] SCOPE->RW: data=0x0233 last=0 (total AXI W=32)
# [DEBUG @7156000] SCOPE->RW: data=0x0234 last=0 (total AXI W=32)
# [DEBUG @7164000] SCOPE->RW: data=0x0235 last=0 (total AXI W=32)
# [DEBUG @7172000] SCOPE->RW: data=0x0236 last=0 (total AXI W=32)
# [DEBUG @7180000] SCOPE->RW: data=0x0237 last=0 (total AXI W=32)
# [DEBUG @7188000] SCOPE->RW: data=0x0238 last=0 (total AXI W=32)
# [DEBUG @7196000] SCOPE->RW: data=0x0239 last=0 (total AXI W=32)
# [DEBUG @7204000] SCOPE->RW: data=0x023a last=0 (total AXI W=32)
# [DEBUG @7212000] SCOPE->RW: data=0x023b last=0 (total AXI W=32)
# [DEBUG @7220000] SCOPE->RW: data=0x023c last=0 (total AXI W=32)
# [DEBUG @7228000] SCOPE->RW: data=0x023d last=0 (total AXI W=32)
# [DEBUG @7236000] SCOPE->RW: data=0x023e last=0 (total AXI W=32)
# [DEBUG @7244000] SCOPE->RW: data=0x023f last=0 (total AXI W=32)
# [DEBUG @7252000] SCOPE->RW: data=0x0240 last=0 (total AXI W=32)
# [DEBUG @7260000] SCOPE->RW: data=0x0241 last=0 (total AXI W=32)
# [DEBUG @7268000] SCOPE->RW: data=0x0242 last=0 (total AXI W=32)
# [DEBUG @7276000] SCOPE->RW: data=0x0243 last=0 (total AXI W=32)
# [DEBUG @7284000] SCOPE->RW: data=0x0244 last=0 (total AXI W=32)
# [DEBUG @7292000] SCOPE->RW: data=0x0245 last=0 (total AXI W=32)
# [DEBUG @7300000] SCOPE->RW: data=0x0246 last=0 (total AXI W=32)
# [DEBUG @7308000] SCOPE->RW: data=0x0247 last=0 (total AXI W=32)
# [DEBUG @7316000] SCOPE->RW: data=0x0248 last=0 (total AXI W=32)
# [DEBUG @7324000] SCOPE->RW: data=0x0249 last=0 (total AXI W=32)
# [DEBUG @7332000] SCOPE->RW: data=0x024a last=0 (total AXI W=32)
# [DEBUG @7340000] SCOPE->RW: data=0x024b last=0 (total AXI W=32)
# [DEBUG @7348000] SCOPE->RW: data=0x024c last=0 (total AXI W=32)
# [DEBUG @7356000] SCOPE->RW: data=0x024d last=0 (total AXI W=32)
# [DEBUG @7364000] SCOPE->RW: data=0x024e last=0 (total AXI W=32)
# [DEBUG @7372000] SCOPE->RW: data=0x024f last=0 (total AXI W=32)
# [DEBUG @7380000] SCOPE->RW: data=0x0250 last=0 (total AXI W=32)
# [DEBUG @7388000] SCOPE->RW: data=0x0251 last=0 (total AXI W=32)
# [DEBUG @7396000] SCOPE->RW: data=0x0252 last=0 (total AXI W=32)
# [DEBUG @7404000] AXI AW: addr=0x10000100 len=15
# [DEBUG @7404000] SCOPE->RW: data=0x0253 last=0 (total AXI W=32)
# [DEBUG @7412000] SCOPE->RW: data=0x0254 last=0 (total AXI W=32)
# [DEBUG @7412000] AXI W #32: data=0x0213021202110210 strb=0xff last=0
# [DEBUG @7420000] AXI W #33: data=0x0217021602150214 strb=0xff last=0
# [DEBUG @7420000] SCOPE->RW: data=0x0255 last=0 (total AXI W=34)
# [DEBUG @7428000] SCOPE->RW: data=0x0256 last=0 (total AXI W=34)
# [DEBUG @7428000] AXI W #34: data=0x021b021a02190218 strb=0xff last=0
# [DEBUG @7436000] AXI W #35: data=0x021f021e021d021c strb=0xff last=0
# [DEBUG @7436000] SCOPE->RW: data=0x0257 last=0 (total AXI W=36)
# [DEBUG @7444000] SCOPE->RW: data=0x0258 last=0 (total AXI W=36)
# [DEBUG @7444000] AXI W #36: data=0x0223022202210220 strb=0xff last=0
# [DEBUG @7452000] AXI W #37: data=0x0227022602250224 strb=0xff last=0
# [DEBUG @7452000] SCOPE->RW: data=0x0259 last=0 (total AXI W=38)
# [DEBUG @7460000] SCOPE->RW: data=0x025a last=0 (total AXI W=38)
# [DEBUG @7460000] AXI W #38: data=0x022b022a02290228 strb=0xff last=0
# [DEBUG @7468000] AXI W #39: data=0x022f022e022d022c strb=0xff last=0
# [DEBUG @7468000] SCOPE->RW: data=0x025b last=0 (total AXI W=40)
# [DEBUG @7476000] SCOPE->RW: data=0x025c last=0 (total AXI W=40)
# [DEBUG @7476000] AXI W #40: data=0x0233023202310230 strb=0xff last=0
# [DEBUG @7484000] AXI W #41: data=0x0237023602350234 strb=0xff last=0
# [DEBUG @7484000] SCOPE->RW: data=0x025d last=0 (total AXI W=42)
# [DEBUG @7492000] SCOPE->RW: data=0x025e last=0 (total AXI W=42)
# [DEBUG @7492000] AXI W #42: data=0x023b023a02390238 strb=0xff last=0
# [DEBUG @7500000] AXI W #43: data=0x023f023e023d023c strb=0xff last=0
# [DEBUG @7500000] SCOPE->RW: data=0x025f last=0 (total AXI W=44)
# [DEBUG @7508000] SCOPE->RW: data=0x0260 last=0 (total AXI W=44)
# [DEBUG @7508000] AXI W #44: data=0x0243024202410240 strb=0xff last=0
# [DEBUG @7516000] AXI W #45: data=0x0247024602450244 strb=0xff last=0
# [DEBUG @7516000] SCOPE->RW: data=0x0261 last=0 (total AXI W=46)
# [DEBUG @7524000] SCOPE->RW: data=0x0262 last=0 (total AXI W=46)
# [DEBUG @7524000] AXI W #46: data=0x024b024a02490248 strb=0xff last=0
# [DEBUG @7532000] AXI W #47: data=0x024f024e024d024c strb=0xff last=1
# [DEBUG @7532000] SCOPE->RW: data=0x0263 last=0 (total AXI W=48)
# [DEBUG @7540000] SCOPE->RW: data=0x0264 last=0 (total AXI W=48)
# [DEBUG @7548000] SCOPE->RW: data=0x0265 last=0 (total AXI W=48)
# [DEBUG @7556000] SCOPE->RW: data=0x0266 last=0 (total AXI W=48)
# [DEBUG @7564000] SCOPE->RW: data=0x0267 last=0 (total AXI W=48)
# [DEBUG @7572000] SCOPE->RW: data=0x0268 last=0 (total AXI W=48)
# [DEBUG @7580000] SCOPE->RW: data=0x0269 last=0 (total AXI W=48)
# [DEBUG @7588000] SCOPE->RW: data=0x026a last=0 (total AXI W=48)
# [DEBUG @7596000] SCOPE->RW: data=0x026b last=0 (total AXI W=48)
# [DEBUG @7604000] SCOPE->RW: data=0x026c last=0 (total AXI W=48)
# [DEBUG @7612000] SCOPE->RW: data=0x026d last=0 (total AXI W=48)
# [DEBUG @7620000] SCOPE->RW: data=0x026e last=0 (total AXI W=48)
# [DEBUG @7628000] SCOPE->RW: data=0x026f last=0 (total AXI W=48)
# [DEBUG @7636000] SCOPE->RW: data=0x0270 last=0 (total AXI W=48)
# [DEBUG @7644000] SCOPE->RW: data=0x0271 last=0 (total AXI W=48)
# [DEBUG @7652000] SCOPE->RW: data=0x0272 last=0 (total AXI W=48)
# [DEBUG @7660000] SCOPE->RW: data=0x0273 last=0 (total AXI W=48)
# [DEBUG @7668000] SCOPE->RW: data=0x0274 last=0 (total AXI W=48)
# [DEBUG @7676000] SCOPE->RW: data=0x0275 last=0 (total AXI W=48)
# [DEBUG @7684000] SCOPE->RW: data=0x0276 last=0 (total AXI W=48)
# [DEBUG @7692000] SCOPE->RW: data=0x0277 last=0 (total AXI W=48)
# [DEBUG @7700000] SCOPE->RW: data=0x0278 last=0 (total AXI W=48)
# [DEBUG @7708000] SCOPE->RW: data=0x0279 last=0 (total AXI W=48)
# [DEBUG @7716000] SCOPE->RW: data=0x027a last=0 (total AXI W=48)
# [DEBUG @7724000] SCOPE->RW: data=0x027b last=0 (total AXI W=48)
# [DEBUG @7732000] SCOPE->RW: data=0x027c last=0 (total AXI W=48)
# [DEBUG @7740000] SCOPE->RW: data=0x027d last=0 (total AXI W=48)
# [DEBUG @7748000] SCOPE->RW: data=0x027e last=0 (total AXI W=48)
# [DEBUG @7756000] SCOPE->RW: data=0x027f last=0 (total AXI W=48)
# [DEBUG @7764000] SCOPE->RW: data=0x0280 last=0 (total AXI W=48)
# [DEBUG @7772000] SCOPE->RW: data=0x0281 last=0 (total AXI W=48)
# [DEBUG @7780000] SCOPE->RW: data=0x0282 last=0 (total AXI W=48)
# [DEBUG @7788000] SCOPE->RW: data=0x0283 last=0 (total AXI W=48)
# [DEBUG @7796000] SCOPE->RW: data=0x0284 last=0 (total AXI W=48)
# [DEBUG @7804000] SCOPE->RW: data=0x0285 last=0 (total AXI W=48)
# [DEBUG @7812000] SCOPE->RW: data=0x0286 last=0 (total AXI W=48)
# [DEBUG @7820000] SCOPE->RW: data=0x0287 last=0 (total AXI W=48)
# [DEBUG @7828000] SCOPE->RW: data=0x0288 last=0 (total AXI W=48)
# [DEBUG @7836000] SCOPE->RW: data=0x0289 last=0 (total AXI W=48)
# [DEBUG @7844000] SCOPE->RW: data=0x028a last=0 (total AXI W=48)
# [DEBUG @7852000] SCOPE->RW: data=0x028b last=0 (total AXI W=48)
# [DEBUG @7860000] SCOPE->RW: data=0x028c last=0 (total AXI W=48)
# [DEBUG @7868000] SCOPE->RW: data=0x028d last=0 (total AXI W=48)
# [DEBUG @7876000] SCOPE->RW: data=0x028e last=0 (total AXI W=48)
# [DEBUG @7884000] SCOPE->RW: data=0x028f last=0 (total AXI W=48)
# [DEBUG @7892000] SCOPE->RW: data=0x0290 last=0 (total AXI W=48)
# [DEBUG @7900000] SCOPE->RW: data=0x0291 last=0 (total AXI W=48)
# [DEBUG @7908000] SCOPE->RW: data=0x0292 last=0 (total AXI W=48)
# [DEBUG @7916000] AXI AW: addr=0x10000180 len=15
# [DEBUG @7916000] SCOPE->RW: data=0x0293 last=0 (total AXI W=48)
# [DEBUG @7924000] SCOPE->RW: data=0x0294 last=0 (total AXI W=48)
# [DEBUG @7924000] AXI W #48: data=0x0253025202510250 strb=0xff last=0
# [DEBUG @7932000] AXI W #49: data=0x0257025602550254 strb=0xff last=0
# [DEBUG @7932000] SCOPE->RW: data=0x0295 last=0 (total AXI W=50)
# [DEBUG @7940000] SCOPE->RW: data=0x0296 last=0 (total AXI W=50)
# [DEBUG @7940000] AXI W #50: data=0x025b025a02590258 strb=0xff last=0
# [DEBUG @7948000] AXI W #51: data=0x025f025e025d025c strb=0xff last=0
# [DEBUG @7948000] SCOPE->RW: data=0x0297 last=0 (total AXI W=52)
# [DEBUG @7956000] SCOPE->RW: data=0x0298 last=0 (total AXI W=52)
# [DEBUG @7956000] AXI W #52: data=0x0263026202610260 strb=0xff last=0
# [DEBUG @7964000] AXI W #53: data=0x0267026602650264 strb=0xff last=0
# [DEBUG @7964000] SCOPE->RW: data=0x0299 last=0 (total AXI W=54)
# [DEBUG @7972000] SCOPE->RW: data=0x029a last=0 (total AXI W=54)
# [DEBUG @7972000] AXI W #54: data=0x026b026a02690268 strb=0xff last=0
# [DEBUG @7980000] AXI W #55: data=0x026f026e026d026c strb=0xff last=0
# [DEBUG @7980000] SCOPE->RW: data=0x029b last=0 (total AXI W=56)
# [DEBUG @7988000] SCOPE->RW: data=0x029c last=0 (total AXI W=56)
# [DEBUG @7988000] AXI W #56: data=0x0273027202710270 strb=0xff last=0
# [DEBUG @7996000] AXI W #57: data=0x0277027602750274 strb=0xff last=0
# [DEBUG @7996000] SCOPE->RW: data=0x029d last=0 (total AXI W=58)
# [DEBUG @8004000] SCOPE->RW: data=0x029e last=0 (total AXI W=58)
# [DEBUG @8004000] AXI W #58: data=0x027b027a02790278 strb=0xff last=0
# [DEBUG @8012000] AXI W #59: data=0x027f027e027d027c strb=0xff last=0
# [DEBUG @8012000] SCOPE->RW: data=0x029f last=0 (total AXI W=60)
# [DEBUG @8020000] SCOPE->RW: data=0x02a0 last=0 (total AXI W=60)
# [DEBUG @8020000] AXI W #60: data=0x0283028202810280 strb=0xff last=0
# [DEBUG @8028000] AXI W #61: data=0x0287028602850284 strb=0xff last=0
# [DEBUG @8028000] SCOPE->RW: data=0x02a1 last=0 (total AXI W=62)
# [DEBUG @8036000] SCOPE->RW: data=0x02a2 last=0 (total AXI W=62)
# [DEBUG @8036000] AXI W #62: data=0x028b028a02890288 strb=0xff last=0
# [DEBUG @8044000] AXI W #63: data=0x028f028e028d028c strb=0xff last=1
# [DEBUG @8044000] SCOPE->RW: data=0x02a3 last=0 (total AXI W=64)
# [DEBUG @8052000] SCOPE->RW: data=0x02a4 last=0 (total AXI W=64)
# [DEBUG @8060000] SCOPE->RW: data=0x02a5 last=0 (total AXI W=64)
# [DEBUG @8068000] SCOPE->RW: data=0x02a6 last=0 (total AXI W=64)
# [DEBUG @8076000] SCOPE->RW: data=0x02a7 last=0 (total AXI W=64)
# [DEBUG @8084000] SCOPE->RW: data=0x02a8 last=0 (total AXI W=64)
# [DEBUG @8092000] SCOPE->RW: data=0x02a9 last=0 (total AXI W=64)
# [DEBUG @8100000] SCOPE->RW: data=0x02aa last=0 (total AXI W=64)
# [DEBUG @8108000] SCOPE->RW: data=0x02ab last=0 (total AXI W=64)
# [DEBUG @8116000] SCOPE->RW: data=0x02ac last=0 (total AXI W=64)
# [DEBUG @8124000] SCOPE->RW: data=0x02ad last=0 (total AXI W=64)
# [DEBUG @8132000] SCOPE->RW: data=0x02ae last=0 (total AXI W=64)
# [DEBUG @8140000] SCOPE->RW: data=0x02af last=0 (total AXI W=64)
# [DEBUG @8148000] SCOPE->RW: data=0x02b0 last=0 (total AXI W=64)
# [DEBUG @8156000] SCOPE->RW: data=0x02b1 last=0 (total AXI W=64)
# [DEBUG @8164000] SCOPE->RW: data=0x02b2 last=0 (total AXI W=64)
# [DEBUG @8172000] SCOPE->RW: data=0x02b3 last=0 (total AXI W=64)
# [DEBUG @8180000] SCOPE->RW: data=0x02b4 last=0 (total AXI W=64)
# [DEBUG @8188000] SCOPE->RW: data=0x02b5 last=0 (total AXI W=64)
# [DEBUG @8196000] SCOPE->RW: data=0x02b6 last=0 (total AXI W=64)
# [DEBUG @8204000] SCOPE->RW: data=0x02b7 last=0 (total AXI W=64)
# [DEBUG @8212000] SCOPE->RW: data=0x02b8 last=0 (total AXI W=64)
# [DEBUG @8220000] SCOPE->RW: data=0x02b9 last=0 (total AXI W=64)
# [DEBUG @8228000] SCOPE->RW: data=0x02ba last=0 (total AXI W=64)
# [DEBUG @8236000] SCOPE->RW: data=0x02ba last=1 (total AXI W=64)
# [DEBUG @8244000] scope_status.done: 0 -> 1
# [DEBUG] scope_status.done=1! sample_count=300
# [DEBUG] wait_capture_done: Esperando RAM Writer...
# [DEBUG] wait_capture_done: RAM Writer terminó
# [DEBUG] Captura terminada. axi_memory.size()=512
# [TB] Mismatch en sample 0: esperado=0x0190, actual=0x0000
# [TB] Mismatch en sample 256: esperado=0x0290, actual=0xxxxx
# [TB] Mismatch en sample 257: esperado=0x0291, actual=0xxxxx
# [TB] Mismatch en sample 258: esperado=0x0292, actual=0xxxxx
# [TB] Mismatch en sample 259: esperado=0x0293, actual=0xxxxx
# [TB] FAILED: basic_single_trigger (45 errors)
# 
# ========== TEST: min_window ==========
# [DEBUG @9060000] scope_status.triggered: 1 -> 0
# [DEBUG @9060000] scope_status.done: 1 -> 0
# [DEBUG] arm_scope: arm=1, esperando que scope_status.armed=1...
# [DEBUG @9212000] scope_status.armed: 0 -> 1
# [DEBUG] arm_scope: scope_status.armed=1
# [DEBUG @9260000] CH0->TRIG #700: data=0x0000
# [DEBUG @9692000] scope_status.armed: 1 -> 0
# [DEBUG @9692000] scope_status.triggered: 0 -> 1
# [DEBUG @9708000] SCOPE->RW: data=0x0000 last=0 (total AXI W=64)
# [DEBUG @9716000] SCOPE->RW: data=0x0032 last=1 (total AXI W=64)
# [DEBUG @9724000] scope_status.done: 0 -> 1
# [DEBUG] send_ramp: scope.done=1, terminando envío en i=56
# [DEBUG] wait_capture_done: Esperando scope_status.done...
# [DEBUG] scope_status.done=1! sample_count=2
# [DEBUG] wait_capture_done: Esperando RAM Writer...
# [DEBUG] wait phase2 cnt=0: scope_tvalid=0 wvalid=0 bvalid=0
# [DEBUG] wait_capture_done: RAM Writer terminó
# [TB] Mismatch en sample 0: esperado=0x0031, actual=0xxxxx
# [TB] Mismatch en sample 1: esperado=0x0032, actual=0xxxxx
# [TB] FAILED: min_window (2 errors)
# 
# ========== TEST: trig_or ==========
# [DEBUG @10540000] scope_status.triggered: 1 -> 0
# [DEBUG @10540000] scope_status.done: 1 -> 0
# [DEBUG] arm_scope: arm=1, esperando que scope_status.armed=1...
# [DEBUG @10692000] scope_status.armed: 0 -> 1
# [DEBUG] arm_scope: scope_status.armed=1
# [DEBUG @11092000] CH0->TRIG #800: data=0x002c
# [DEBUG @11100000] TRIG->SCOPE #800: data=0x002b
# [DEBUG @11892000] CH0->TRIG #900: data=0x0090
# [DEBUG @11900000] TRIG->SCOPE #900: data=0x008f
# [DEBUG @12692000] CH0->TRIG #1000: data=0x00f4
# [DEBUG @12700000] TRIG->SCOPE #1000: data=0x00f3
# [DEBUG @13172000] scope_status.armed: 1 -> 0
# [DEBUG @13172000] scope_status.triggered: 0 -> 1
# [DEBUG @13492000] CH0->TRIG #1100: data=0x0158
# [DEBUG @13500000] TRIG->SCOPE #1100: data=0x0157
# [DEBUG @13980000] SCOPE->RW: data=0x0000 last=0 (total AXI W=64)
# [DEBUG @13988000] SCOPE->RW: data=0x00fb last=0 (total AXI W=64)
# [DEBUG @13996000] SCOPE->RW: data=0x00fc last=0 (total AXI W=64)
# [DEBUG @14004000] SCOPE->RW: data=0x00fd last=0 (total AXI W=64)
# [DEBUG @14012000] SCOPE->RW: data=0x00fe last=0 (total AXI W=64)
# [DEBUG @14020000] SCOPE->RW: data=0x00ff last=0 (total AXI W=64)
# [DEBUG @14028000] SCOPE->RW: data=0x0100 last=0 (total AXI W=64)
# [DEBUG @14036000] SCOPE->RW: data=0x0101 last=0 (total AXI W=64)
# [DEBUG @14044000] SCOPE->RW: data=0x0102 last=0 (total AXI W=64)
# [DEBUG @14052000] SCOPE->RW: data=0x0103 last=0 (total AXI W=64)
# [DEBUG @14060000] SCOPE->RW: data=0x0104 last=0 (total AXI W=64)
# [DEBUG @14068000] SCOPE->RW: data=0x0105 last=0 (total AXI W=64)
# [DEBUG @14076000] SCOPE->RW: data=0x0106 last=0 (total AXI W=64)
# [DEBUG @14084000] SCOPE->RW: data=0x0107 last=0 (total AXI W=64)
# [DEBUG @14092000] SCOPE->RW: data=0x0108 last=0 (total AXI W=64)
# [DEBUG @14100000] SCOPE->RW: data=0x0109 last=0 (total AXI W=64)
# [DEBUG @14108000] SCOPE->RW: data=0x010a last=0 (total AXI W=64)
# [DEBUG @14116000] SCOPE->RW: data=0x010b last=0 (total AXI W=64)
# [DEBUG @14124000] SCOPE->RW: data=0x010c last=0 (total AXI W=64)
# [DEBUG @14132000] SCOPE->RW: data=0x010d last=0 (total AXI W=64)
# [DEBUG @14140000] SCOPE->RW: data=0x010e last=0 (total AXI W=64)
# [DEBUG @14148000] SCOPE->RW: data=0x010f last=0 (total AXI W=64)
# [DEBUG @14156000] SCOPE->RW: data=0x0110 last=0 (total AXI W=64)
# [DEBUG @14164000] SCOPE->RW: data=0x0111 last=0 (total AXI W=64)
# [DEBUG @14172000] SCOPE->RW: data=0x0112 last=0 (total AXI W=64)
# [DEBUG @14180000] SCOPE->RW: data=0x0113 last=0 (total AXI W=64)
# [DEBUG @14188000] SCOPE->RW: data=0x0114 last=0 (total AXI W=64)
# [DEBUG @14196000] SCOPE->RW: data=0x0115 last=0 (total AXI W=64)
# [DEBUG @14204000] SCOPE->RW: data=0x0116 last=0 (total AXI W=64)
# [DEBUG @14212000] SCOPE->RW: data=0x0117 last=0 (total AXI W=64)
# [DEBUG @14220000] SCOPE->RW: data=0x0118 last=0 (total AXI W=64)
# [DEBUG @14228000] SCOPE->RW: data=0x0119 last=0 (total AXI W=64)
# [DEBUG @14236000] SCOPE->RW: data=0x011a last=0 (total AXI W=64)
# [DEBUG @14244000] SCOPE->RW: data=0x011b last=0 (total AXI W=64)
# [DEBUG @14252000] SCOPE->RW: data=0x011c last=0 (total AXI W=64)
# [DEBUG @14260000] SCOPE->RW: data=0x011d last=0 (total AXI W=64)
# [DEBUG @14268000] SCOPE->RW: data=0x011e last=0 (total AXI W=64)
# [DEBUG @14276000] SCOPE->RW: data=0x011f last=0 (total AXI W=64)
# [DEBUG @14284000] SCOPE->RW: data=0x0120 last=0 (total AXI W=64)
# [DEBUG @14292000] SCOPE->RW: data=0x0121 last=0 (total AXI W=64)
# [DEBUG @14300000] SCOPE->RW: data=0x0122 last=0 (total AXI W=64)
# [DEBUG @14308000] SCOPE->RW: data=0x0123 last=0 (total AXI W=64)
# [DEBUG @14316000] SCOPE->RW: data=0x0124 last=0 (total AXI W=64)
# [DEBUG @14324000] SCOPE->RW: data=0x0125 last=0 (total AXI W=64)
# [DEBUG @14332000] SCOPE->RW: data=0x0126 last=0 (total AXI W=64)
# [DEBUG @14340000] SCOPE->RW: data=0x0127 last=0 (total AXI W=64)
# [DEBUG @14348000] SCOPE->RW: data=0x0128 last=0 (total AXI W=64)
# [DEBUG @14356000] SCOPE->RW: data=0x0129 last=0 (total AXI W=64)
# [DEBUG @14364000] SCOPE->RW: data=0x012a last=0 (total AXI W=64)
# [DEBUG @14372000] SCOPE->RW: data=0x012b last=0 (total AXI W=64)
# [DEBUG @14380000] SCOPE->RW: data=0x012c last=0 (total AXI W=64)
# [DEBUG @14388000] SCOPE->RW: data=0x012d last=0 (total AXI W=64)
# [DEBUG @14396000] SCOPE->RW: data=0x012e last=0 (total AXI W=64)
# [DEBUG @14404000] SCOPE->RW: data=0x012f last=0 (total AXI W=64)
# [DEBUG @14412000] SCOPE->RW: data=0x0130 last=0 (total AXI W=64)
# [DEBUG @14420000] SCOPE->RW: data=0x0131 last=0 (total AXI W=64)
# [DEBUG @14428000] SCOPE->RW: data=0x0132 last=0 (total AXI W=64)
# [DEBUG @14436000] SCOPE->RW: data=0x0133 last=0 (total AXI W=64)
# [DEBUG @14444000] SCOPE->RW: data=0x0134 last=0 (total AXI W=64)
# [DEBUG @14452000] SCOPE->RW: data=0x0135 last=0 (total AXI W=64)
# [DEBUG @14460000] SCOPE->RW: data=0x0136 last=0 (total AXI W=64)
# [DEBUG @14468000] SCOPE->RW: data=0x0137 last=0 (total AXI W=64)
# [DEBUG @14476000] SCOPE->RW: data=0x0138 last=0 (total AXI W=64)
# [DEBUG @14484000] SCOPE->RW: data=0x0139 last=0 (total AXI W=64)
# [DEBUG @14492000] SCOPE->RW: data=0x013a last=0 (total AXI W=64)
# [DEBUG @14500000] SCOPE->RW: data=0x013b last=0 (total AXI W=64)
# [DEBUG @14508000] SCOPE->RW: data=0x013c last=0 (total AXI W=64)
# [DEBUG @14516000] AXI AW: addr=0x10000000 len=15
# [DEBUG @14516000] SCOPE->RW: data=0x013d last=0 (total AXI W=64)
# [DEBUG @14524000] SCOPE->RW: data=0x013e last=0 (total AXI W=64)
# [DEBUG @14524000] AXI W #64: data=0x00fd00fc00fb0000 strb=0xff last=0
# [DEBUG @14532000] AXI W #65: data=0x0101010000ff00fe strb=0xff last=0
# [DEBUG @14532000] SCOPE->RW: data=0x013f last=0 (total AXI W=66)
# [DEBUG @14540000] SCOPE->RW: data=0x0140 last=0 (total AXI W=66)
# [DEBUG @14540000] AXI W #66: data=0x0105010401030102 strb=0xff last=0
# [DEBUG @14548000] AXI W #67: data=0x0109010801070106 strb=0xff last=0
# [DEBUG @14548000] SCOPE->RW: data=0x0141 last=0 (total AXI W=68)
# [DEBUG @14556000] SCOPE->RW: data=0x0142 last=0 (total AXI W=68)
# [DEBUG @14556000] AXI W #68: data=0x010d010c010b010a strb=0xff last=0
# [DEBUG @14564000] AXI W #69: data=0x01110110010f010e strb=0xff last=0
# [DEBUG @14564000] SCOPE->RW: data=0x0143 last=0 (total AXI W=70)
# [DEBUG @14572000] SCOPE->RW: data=0x0144 last=0 (total AXI W=70)
# [DEBUG @14572000] AXI W #70: data=0x0115011401130112 strb=0xff last=0
# [DEBUG @14580000] AXI W #71: data=0x0119011801170116 strb=0xff last=0
# [DEBUG @14580000] SCOPE->RW: data=0x0145 last=0 (total AXI W=72)
# [DEBUG @14588000] SCOPE->RW: data=0x0146 last=0 (total AXI W=72)
# [DEBUG @14588000] AXI W #72: data=0x011d011c011b011a strb=0xff last=0
# [DEBUG @14596000] AXI W #73: data=0x01210120011f011e strb=0xff last=0
# [DEBUG @14596000] SCOPE->RW: data=0x0147 last=0 (total AXI W=74)
# [DEBUG @14604000] SCOPE->RW: data=0x0148 last=0 (total AXI W=74)
# [DEBUG @14604000] AXI W #74: data=0x0125012401230122 strb=0xff last=0
# [DEBUG @14612000] AXI W #75: data=0x0129012801270126 strb=0xff last=0
# [DEBUG @14612000] SCOPE->RW: data=0x0149 last=0 (total AXI W=76)
# [DEBUG @14620000] SCOPE->RW: data=0x014a last=0 (total AXI W=76)
# [DEBUG @14620000] AXI W #76: data=0x012d012c012b012a strb=0xff last=0
# [DEBUG @14628000] AXI W #77: data=0x01310130012f012e strb=0xff last=0
# [DEBUG @14628000] SCOPE->RW: data=0x014b last=0 (total AXI W=78)
# [DEBUG @14636000] SCOPE->RW: data=0x014c last=0 (total AXI W=78)
# [DEBUG @14636000] AXI W #78: data=0x0135013401330132 strb=0xff last=0
# [DEBUG @14644000] AXI W #79: data=0x0139013801370136 strb=0xff last=1
# [DEBUG @14644000] SCOPE->RW: data=0x014d last=0 (total AXI W=80)
# [DEBUG @14652000] SCOPE->RW: data=0x014e last=0 (total AXI W=80)
# [DEBUG @14660000] SCOPE->RW: data=0x014f last=0 (total AXI W=80)
# [DEBUG @14668000] SCOPE->RW: data=0x0150 last=0 (total AXI W=80)
# [DEBUG @14676000] SCOPE->RW: data=0x0151 last=0 (total AXI W=80)
# [DEBUG @14684000] SCOPE->RW: data=0x0152 last=0 (total AXI W=80)
# [DEBUG @14692000] SCOPE->RW: data=0x0153 last=0 (total AXI W=80)
# [DEBUG @14700000] SCOPE->RW: data=0x0154 last=0 (total AXI W=80)
# [DEBUG @14708000] SCOPE->RW: data=0x0155 last=0 (total AXI W=80)
# [DEBUG @14716000] SCOPE->RW: data=0x0156 last=0 (total AXI W=80)
# [DEBUG @14724000] SCOPE->RW: data=0x0157 last=0 (total AXI W=80)
# [DEBUG @14732000] SCOPE->RW: data=0x0158 last=0 (total AXI W=80)
# [DEBUG @14740000] SCOPE->RW: data=0x0159 last=0 (total AXI W=80)
# [DEBUG @14748000] SCOPE->RW: data=0x015a last=0 (total AXI W=80)
# [DEBUG @14756000] SCOPE->RW: data=0x015b last=0 (total AXI W=80)
# [DEBUG @14764000] SCOPE->RW: data=0x015c last=0 (total AXI W=80)
# [DEBUG @14772000] SCOPE->RW: data=0x015d last=0 (total AXI W=80)
# [DEBUG @14780000] SCOPE->RW: data=0x015e last=0 (total AXI W=80)
# [DEBUG @14788000] SCOPE->RW: data=0x015f last=0 (total AXI W=80)
# [DEBUG @14796000] SCOPE->RW: data=0x0160 last=0 (total AXI W=80)
# [DEBUG @14804000] SCOPE->RW: data=0x0161 last=0 (total AXI W=80)
# [DEBUG @14812000] SCOPE->RW: data=0x0162 last=0 (total AXI W=80)
# [DEBUG @14820000] SCOPE->RW: data=0x0163 last=0 (total AXI W=80)
# [DEBUG @14828000] SCOPE->RW: data=0x0164 last=0 (total AXI W=80)
# [DEBUG @14836000] SCOPE->RW: data=0x0165 last=0 (total AXI W=80)
# [DEBUG @14844000] SCOPE->RW: data=0x0166 last=0 (total AXI W=80)
# [DEBUG @14852000] SCOPE->RW: data=0x0167 last=0 (total AXI W=80)
# [DEBUG @14860000] SCOPE->RW: data=0x0168 last=0 (total AXI W=80)
# [DEBUG @14868000] SCOPE->RW: data=0x0169 last=0 (total AXI W=80)
# [DEBUG @14876000] SCOPE->RW: data=0x016a last=0 (total AXI W=80)
# [DEBUG @14884000] SCOPE->RW: data=0x016b last=0 (total AXI W=80)
# [DEBUG @14892000] SCOPE->RW: data=0x016c last=0 (total AXI W=80)
# [DEBUG @14900000] SCOPE->RW: data=0x016d last=0 (total AXI W=80)
# [DEBUG @14908000] SCOPE->RW: data=0x016e last=0 (total AXI W=80)
# [DEBUG @14916000] SCOPE->RW: data=0x016f last=0 (total AXI W=80)
# [DEBUG @14924000] SCOPE->RW: data=0x0170 last=0 (total AXI W=80)
# [DEBUG @14932000] SCOPE->RW: data=0x0171 last=0 (total AXI W=80)
# [DEBUG @14940000] SCOPE->RW: data=0x0172 last=0 (total AXI W=80)
# [DEBUG @14948000] SCOPE->RW: data=0x0173 last=0 (total AXI W=80)
# [DEBUG @14956000] SCOPE->RW: data=0x0174 last=0 (total AXI W=80)
# [DEBUG @14964000] SCOPE->RW: data=0x0175 last=0 (total AXI W=80)
# [DEBUG @14972000] SCOPE->RW: data=0x0176 last=0 (total AXI W=80)
# [DEBUG @14980000] SCOPE->RW: data=0x0177 last=0 (total AXI W=80)
# [DEBUG @14988000] SCOPE->RW: data=0x0178 last=0 (total AXI W=80)
# [DEBUG @14996000] SCOPE->RW: data=0x0179 last=0 (total AXI W=80)
# [DEBUG @15004000] SCOPE->RW: data=0x017a last=0 (total AXI W=80)
# [DEBUG @15012000] SCOPE->RW: data=0x017b last=0 (total AXI W=80)
# [DEBUG @15020000] SCOPE->RW: data=0x017c last=0 (total AXI W=80)
# [DEBUG @15028000] AXI AW: addr=0x10000080 len=15
# [DEBUG @15028000] SCOPE->RW: data=0x017d last=0 (total AXI W=80)
# [DEBUG @15036000] SCOPE->RW: data=0x017e last=0 (total AXI W=80)
# [DEBUG @15036000] AXI W #80: data=0x013d013c013b013a strb=0xff last=0
# [DEBUG @15044000] AXI W #81: data=0x01410140013f013e strb=0xff last=0
# [DEBUG @15044000] SCOPE->RW: data=0x017f last=0 (total AXI W=82)
# [DEBUG @15052000] SCOPE->RW: data=0x0180 last=0 (total AXI W=82)
# [DEBUG @15052000] AXI W #82: data=0x0145014401430142 strb=0xff last=0
# [DEBUG @15060000] AXI W #83: data=0x0149014801470146 strb=0xff last=0
# [DEBUG @15060000] SCOPE->RW: data=0x0181 last=0 (total AXI W=84)
# [DEBUG @15068000] SCOPE->RW: data=0x0182 last=0 (total AXI W=84)
# [DEBUG @15068000] AXI W #84: data=0x014d014c014b014a strb=0xff last=0
# [DEBUG @15076000] AXI W #85: data=0x01510150014f014e strb=0xff last=0
# [DEBUG @15076000] SCOPE->RW: data=0x0183 last=0 (total AXI W=86)
# [DEBUG @15084000] SCOPE->RW: data=0x0184 last=0 (total AXI W=86)
# [DEBUG @15084000] AXI W #86: data=0x0155015401530152 strb=0xff last=0
# [DEBUG @15092000] AXI W #87: data=0x0159015801570156 strb=0xff last=0
# [DEBUG @15092000] SCOPE->RW: data=0x0185 last=0 (total AXI W=88)
# [DEBUG @15100000] SCOPE->RW: data=0x0186 last=0 (total AXI W=88)
# [DEBUG @15100000] AXI W #88: data=0x015d015c015b015a strb=0xff last=0
# [DEBUG @15108000] AXI W #89: data=0x01610160015f015e strb=0xff last=0
# [DEBUG @15108000] SCOPE->RW: data=0x0187 last=0 (total AXI W=90)
# [DEBUG @15116000] SCOPE->RW: data=0x0188 last=0 (total AXI W=90)
# [DEBUG @15116000] AXI W #90: data=0x0165016401630162 strb=0xff last=0
# [DEBUG @15124000] AXI W #91: data=0x0169016801670166 strb=0xff last=0
# [DEBUG @15124000] SCOPE->RW: data=0x0189 last=0 (total AXI W=92)
# [DEBUG @15132000] SCOPE->RW: data=0x018a last=0 (total AXI W=92)
# [DEBUG @15132000] AXI W #92: data=0x016d016c016b016a strb=0xff last=0
# [DEBUG @15140000] AXI W #93: data=0x01710170016f016e strb=0xff last=0
# [DEBUG @15140000] SCOPE->RW: data=0x018b last=0 (total AXI W=94)
# [DEBUG @15148000] SCOPE->RW: data=0x018c last=0 (total AXI W=94)
# [DEBUG @15148000] AXI W #94: data=0x0175017401730172 strb=0xff last=0
# [DEBUG @15156000] AXI W #95: data=0x0179017801770176 strb=0xff last=1
# [DEBUG @15156000] SCOPE->RW: data=0x018d last=0 (total AXI W=96)
# [DEBUG @15164000] SCOPE->RW: data=0x018e last=0 (total AXI W=96)
# [DEBUG @15172000] SCOPE->RW: data=0x018f last=1 (total AXI W=96)
# [DEBUG @15180000] scope_status.done: 0 -> 1
# [DEBUG] send_ramp: scope.done=1, terminando envío en i=405
# [DEBUG] wait_capture_done: Esperando scope_status.done...
# [DEBUG] scope_status.done=1! sample_count=150
# [DEBUG] wait_capture_done: Esperando RAM Writer...
# [DEBUG] wait phase2 cnt=0: scope_tvalid=0 wvalid=0 bvalid=0
# [DEBUG] wait_capture_done: RAM Writer terminó
# [TB] Mismatch en sample 0: esperado=0x00fa, actual=0x0000
# [TB] Mismatch en sample 128: esperado=0x017a, actual=0xxxxx
# [TB] Mismatch en sample 129: esperado=0x017b, actual=0xxxxx
# [TB] Mismatch en sample 130: esperado=0x017c, actual=0xxxxx
# [TB] Mismatch en sample 131: esperado=0x017d, actual=0xxxxx
# [TB] FAILED: trig_or (23 errors)
# 
# ========== TEST: trig_blocking ==========
# [DEBUG @15996000] scope_status.triggered: 1 -> 0
# [DEBUG @15996000] scope_status.done: 1 -> 0
# [DEBUG] arm_scope: arm=1, esperando que scope_status.armed=1...
# [DEBUG @16148000] scope_status.armed: 0 -> 1
# [DEBUG] arm_scope: scope_status.armed=1
# [DEBUG @16508000] CH0->TRIG #1200: data=0x0027
# [DEBUG @16532000] TRIG->SCOPE #1200: data=0x0028
# [DEBUG @17308000] CH0->TRIG #1300: data=0x008b
# [DEBUG @17332000] TRIG->SCOPE #1300: data=0x008c
# [DEBUG @17828000] scope_status.armed: 1 -> 0
# [DEBUG @17828000] scope_status.triggered: 0 -> 1
# [DEBUG @18108000] CH0->TRIG #1400: data=0x00ef
# [DEBUG @18132000] TRIG->SCOPE #1400: data=0x00f0
# [DEBUG @18636000] SCOPE->RW: data=0x0000 last=0 (total AXI W=96)
# [DEBUG @18644000] SCOPE->RW: data=0x0097 last=0 (total AXI W=96)
# [DEBUG @18652000] SCOPE->RW: data=0x0098 last=0 (total AXI W=96)
# [DEBUG @18660000] SCOPE->RW: data=0x0099 last=0 (total AXI W=96)
# [DEBUG @18668000] SCOPE->RW: data=0x009a last=0 (total AXI W=96)
# [DEBUG @18676000] SCOPE->RW: data=0x009b last=0 (total AXI W=96)
# [DEBUG @18684000] SCOPE->RW: data=0x009c last=0 (total AXI W=96)
# [DEBUG @18692000] SCOPE->RW: data=0x009d last=0 (total AXI W=96)
# [DEBUG @18700000] SCOPE->RW: data=0x009e last=0 (total AXI W=96)
# [DEBUG @18708000] SCOPE->RW: data=0x009f last=0 (total AXI W=96)
# [DEBUG @18716000] SCOPE->RW: data=0x00a0 last=0 (total AXI W=96)
# [DEBUG @18724000] SCOPE->RW: data=0x00a1 last=0 (total AXI W=96)
# [DEBUG @18732000] SCOPE->RW: data=0x00a2 last=0 (total AXI W=96)
# [DEBUG @18740000] SCOPE->RW: data=0x00a3 last=0 (total AXI W=96)
# [DEBUG @18748000] SCOPE->RW: data=0x00a4 last=0 (total AXI W=96)
# [DEBUG @18756000] SCOPE->RW: data=0x00a5 last=0 (total AXI W=96)
# [DEBUG @18764000] SCOPE->RW: data=0x00a6 last=0 (total AXI W=96)
# [DEBUG @18772000] SCOPE->RW: data=0x00a7 last=0 (total AXI W=96)
# [DEBUG @18780000] SCOPE->RW: data=0x00a8 last=0 (total AXI W=96)
# [DEBUG @18788000] SCOPE->RW: data=0x00a9 last=0 (total AXI W=96)
# [DEBUG @18796000] SCOPE->RW: data=0x00aa last=0 (total AXI W=96)
# [DEBUG @18804000] SCOPE->RW: data=0x00ab last=0 (total AXI W=96)
# [DEBUG @18812000] SCOPE->RW: data=0x00ac last=0 (total AXI W=96)
# [DEBUG @18820000] SCOPE->RW: data=0x00ad last=0 (total AXI W=96)
# [DEBUG @18828000] SCOPE->RW: data=0x00ae last=0 (total AXI W=96)
# [DEBUG @18836000] SCOPE->RW: data=0x00af last=0 (total AXI W=96)
# [DEBUG @18844000] SCOPE->RW: data=0x00b0 last=0 (total AXI W=96)
# [DEBUG @18852000] SCOPE->RW: data=0x00b1 last=0 (total AXI W=96)
# [DEBUG @18860000] SCOPE->RW: data=0x00b2 last=0 (total AXI W=96)
# [DEBUG @18868000] SCOPE->RW: data=0x00b3 last=0 (total AXI W=96)
# [DEBUG @18876000] SCOPE->RW: data=0x00b4 last=0 (total AXI W=96)
# [DEBUG @18884000] SCOPE->RW: data=0x00b5 last=0 (total AXI W=96)
# [DEBUG @18892000] SCOPE->RW: data=0x00b6 last=0 (total AXI W=96)
# [DEBUG @18900000] SCOPE->RW: data=0x00b7 last=0 (total AXI W=96)
# [DEBUG @18908000] SCOPE->RW: data=0x00b8 last=0 (total AXI W=96)
# [DEBUG @18916000] SCOPE->RW: data=0x00b9 last=0 (total AXI W=96)
# [DEBUG @18924000] SCOPE->RW: data=0x00ba last=0 (total AXI W=96)
# [DEBUG @18932000] SCOPE->RW: data=0x00bb last=0 (total AXI W=96)
# [DEBUG @18940000] SCOPE->RW: data=0x00bc last=0 (total AXI W=96)
# [DEBUG @18948000] SCOPE->RW: data=0x00bd last=0 (total AXI W=96)
# [DEBUG @18956000] SCOPE->RW: data=0x00be last=0 (total AXI W=96)
# [DEBUG @18964000] SCOPE->RW: data=0x00bf last=0 (total AXI W=96)
# [DEBUG @18972000] SCOPE->RW: data=0x00c0 last=0 (total AXI W=96)
# [DEBUG @18980000] SCOPE->RW: data=0x00c1 last=0 (total AXI W=96)
# [DEBUG @18988000] SCOPE->RW: data=0x00c2 last=0 (total AXI W=96)
# [DEBUG @18996000] SCOPE->RW: data=0x00c3 last=0 (total AXI W=96)
# [DEBUG @19004000] SCOPE->RW: data=0x00c4 last=0 (total AXI W=96)
# [DEBUG @19012000] SCOPE->RW: data=0x00c5 last=0 (total AXI W=96)
# [DEBUG @19020000] SCOPE->RW: data=0x00c6 last=0 (total AXI W=96)
# [DEBUG @19028000] SCOPE->RW: data=0x00c7 last=0 (total AXI W=96)
# [DEBUG @19036000] SCOPE->RW: data=0x00c8 last=0 (total AXI W=96)
# [DEBUG @19044000] SCOPE->RW: data=0x00c9 last=0 (total AXI W=96)
# [DEBUG @19052000] SCOPE->RW: data=0x00ca last=0 (total AXI W=96)
# [DEBUG @19060000] SCOPE->RW: data=0x00cb last=0 (total AXI W=96)
# [DEBUG @19068000] SCOPE->RW: data=0x00cc last=0 (total AXI W=96)
# [DEBUG @19076000] SCOPE->RW: data=0x00cd last=0 (total AXI W=96)
# [DEBUG @19084000] SCOPE->RW: data=0x00ce last=0 (total AXI W=96)
# [DEBUG @19092000] SCOPE->RW: data=0x00cf last=0 (total AXI W=96)
# [DEBUG @19100000] SCOPE->RW: data=0x00d0 last=0 (total AXI W=96)
# [DEBUG @19108000] SCOPE->RW: data=0x00d1 last=0 (total AXI W=96)
# [DEBUG @19116000] SCOPE->RW: data=0x00d2 last=0 (total AXI W=96)
# [DEBUG @19124000] SCOPE->RW: data=0x00d3 last=0 (total AXI W=96)
# [DEBUG @19132000] SCOPE->RW: data=0x00d4 last=0 (total AXI W=96)
# [DEBUG @19140000] SCOPE->RW: data=0x00d5 last=0 (total AXI W=96)
# [DEBUG @19148000] SCOPE->RW: data=0x00d6 last=0 (total AXI W=96)
# [DEBUG @19156000] SCOPE->RW: data=0x00d7 last=0 (total AXI W=96)
# [DEBUG @19164000] SCOPE->RW: data=0x00d8 last=0 (total AXI W=96)
# [DEBUG @19172000] AXI AW: addr=0x10000000 len=15
# [DEBUG @19172000] SCOPE->RW: data=0x00d9 last=0 (total AXI W=96)
# [DEBUG @19180000] SCOPE->RW: data=0x00da last=0 (total AXI W=96)
# [DEBUG @19180000] AXI W #96: data=0x0099009800970000 strb=0xff last=0
# [DEBUG @19188000] AXI W #97: data=0x009d009c009b009a strb=0xff last=0
# [DEBUG @19188000] SCOPE->RW: data=0x00db last=0 (total AXI W=98)
# [DEBUG @19196000] SCOPE->RW: data=0x00dc last=0 (total AXI W=98)
# [DEBUG @19196000] AXI W #98: data=0x00a100a0009f009e strb=0xff last=0
# [DEBUG @19204000] AXI W #99: data=0x00a500a400a300a2 strb=0xff last=0
# [DEBUG @19204000] SCOPE->RW: data=0x00dd last=0 (total AXI W=100)
# [DEBUG @19212000] SCOPE->RW: data=0x00de last=0 (total AXI W=100)
# [DEBUG @19212000] AXI W #100: data=0x00a900a800a700a6 strb=0xff last=0
# [DEBUG @19220000] AXI W #101: data=0x00ad00ac00ab00aa strb=0xff last=0
# [DEBUG @19220000] SCOPE->RW: data=0x00df last=0 (total AXI W=102)
# [DEBUG @19228000] SCOPE->RW: data=0x00e0 last=0 (total AXI W=102)
# [DEBUG @19228000] AXI W #102: data=0x00b100b000af00ae strb=0xff last=0
# [DEBUG @19236000] AXI W #103: data=0x00b500b400b300b2 strb=0xff last=0
# [DEBUG @19236000] SCOPE->RW: data=0x00e1 last=0 (total AXI W=104)
# [DEBUG @19244000] SCOPE->RW: data=0x00e2 last=0 (total AXI W=104)
# [DEBUG @19244000] AXI W #104: data=0x00b900b800b700b6 strb=0xff last=0
# [DEBUG @19252000] AXI W #105: data=0x00bd00bc00bb00ba strb=0xff last=0
# [DEBUG @19252000] SCOPE->RW: data=0x00e3 last=0 (total AXI W=106)
# [DEBUG @19260000] SCOPE->RW: data=0x00e4 last=0 (total AXI W=106)
# [DEBUG @19260000] AXI W #106: data=0x00c100c000bf00be strb=0xff last=0
# [DEBUG @19268000] AXI W #107: data=0x00c500c400c300c2 strb=0xff last=0
# [DEBUG @19268000] SCOPE->RW: data=0x00e5 last=0 (total AXI W=108)
# [DEBUG @19276000] SCOPE->RW: data=0x00e6 last=0 (total AXI W=108)
# [DEBUG @19276000] AXI W #108: data=0x00c900c800c700c6 strb=0xff last=0
# [DEBUG @19284000] AXI W #109: data=0x00cd00cc00cb00ca strb=0xff last=0
# [DEBUG @19284000] SCOPE->RW: data=0x00e7 last=0 (total AXI W=110)
# [DEBUG @19292000] SCOPE->RW: data=0x00e8 last=0 (total AXI W=110)
# [DEBUG @19292000] AXI W #110: data=0x00d100d000cf00ce strb=0xff last=0
# [DEBUG @19300000] AXI W #111: data=0x00d500d400d300d2 strb=0xff last=1
# [DEBUG @19300000] SCOPE->RW: data=0x00e9 last=0 (total AXI W=112)
# [DEBUG @19308000] SCOPE->RW: data=0x00ea last=0 (total AXI W=112)
# [DEBUG @19316000] SCOPE->RW: data=0x00eb last=0 (total AXI W=112)
# [DEBUG @19324000] SCOPE->RW: data=0x00ec last=0 (total AXI W=112)
# [DEBUG @19332000] SCOPE->RW: data=0x00ed last=0 (total AXI W=112)
# [DEBUG @19340000] SCOPE->RW: data=0x00ee last=0 (total AXI W=112)
# [DEBUG @19348000] SCOPE->RW: data=0x00ef last=0 (total AXI W=112)
# [DEBUG @19356000] SCOPE->RW: data=0x00f0 last=0 (total AXI W=112)
# [DEBUG @19364000] SCOPE->RW: data=0x00f1 last=0 (total AXI W=112)
# [DEBUG @19372000] SCOPE->RW: data=0x00f2 last=0 (total AXI W=112)
# [DEBUG @19380000] SCOPE->RW: data=0x00f3 last=0 (total AXI W=112)
# [DEBUG @19388000] SCOPE->RW: data=0x00f4 last=0 (total AXI W=112)
# [DEBUG @19396000] SCOPE->RW: data=0x00f5 last=0 (total AXI W=112)
# [DEBUG @19404000] SCOPE->RW: data=0x00f6 last=0 (total AXI W=112)
# [DEBUG @19412000] SCOPE->RW: data=0x00f7 last=0 (total AXI W=112)
# [DEBUG @19420000] SCOPE->RW: data=0x00f8 last=0 (total AXI W=112)
# [DEBUG @19428000] SCOPE->RW: data=0x00f9 last=0 (total AXI W=112)
# [DEBUG @19436000] SCOPE->RW: data=0x00fa last=0 (total AXI W=112)
# [DEBUG @19444000] SCOPE->RW: data=0x00fb last=0 (total AXI W=112)
# [DEBUG @19452000] SCOPE->RW: data=0x00fc last=0 (total AXI W=112)
# [DEBUG @19460000] SCOPE->RW: data=0x00fd last=0 (total AXI W=112)
# [DEBUG @19468000] SCOPE->RW: data=0x00fe last=0 (total AXI W=112)
# [DEBUG @19476000] SCOPE->RW: data=0x00ff last=0 (total AXI W=112)
# [DEBUG @19484000] SCOPE->RW: data=0x0100 last=0 (total AXI W=112)
# [DEBUG @19492000] SCOPE->RW: data=0x0101 last=0 (total AXI W=112)
# [DEBUG @19500000] SCOPE->RW: data=0x0102 last=0 (total AXI W=112)
# [DEBUG @19508000] SCOPE->RW: data=0x0103 last=0 (total AXI W=112)
# [DEBUG @19516000] SCOPE->RW: data=0x0104 last=0 (total AXI W=112)
# [DEBUG @19524000] SCOPE->RW: data=0x0105 last=0 (total AXI W=112)
# [DEBUG @19532000] SCOPE->RW: data=0x0106 last=0 (total AXI W=112)
# [DEBUG @19540000] SCOPE->RW: data=0x0107 last=0 (total AXI W=112)
# [DEBUG @19548000] SCOPE->RW: data=0x0108 last=0 (total AXI W=112)
# [DEBUG @19556000] SCOPE->RW: data=0x0109 last=0 (total AXI W=112)
# [DEBUG @19564000] SCOPE->RW: data=0x010a last=0 (total AXI W=112)
# [DEBUG @19572000] SCOPE->RW: data=0x010b last=0 (total AXI W=112)
# [DEBUG @19580000] SCOPE->RW: data=0x010c last=0 (total AXI W=112)
# [DEBUG @19588000] SCOPE->RW: data=0x010d last=0 (total AXI W=112)
# [DEBUG @19596000] SCOPE->RW: data=0x010e last=0 (total AXI W=112)
# [DEBUG @19604000] SCOPE->RW: data=0x010f last=0 (total AXI W=112)
# [DEBUG @19612000] SCOPE->RW: data=0x0110 last=0 (total AXI W=112)
# [DEBUG @19620000] SCOPE->RW: data=0x0111 last=0 (total AXI W=112)
# [DEBUG @19628000] SCOPE->RW: data=0x0112 last=0 (total AXI W=112)
# [DEBUG @19636000] SCOPE->RW: data=0x0113 last=0 (total AXI W=112)
# [DEBUG @19644000] SCOPE->RW: data=0x0114 last=0 (total AXI W=112)
# [DEBUG @19652000] SCOPE->RW: data=0x0115 last=0 (total AXI W=112)
# [DEBUG @19660000] SCOPE->RW: data=0x0116 last=0 (total AXI W=112)
# [DEBUG @19668000] SCOPE->RW: data=0x0117 last=0 (total AXI W=112)
# [DEBUG @19676000] SCOPE->RW: data=0x0118 last=0 (total AXI W=112)
# [DEBUG @19684000] AXI AW: addr=0x10000080 len=15
# [DEBUG @19684000] SCOPE->RW: data=0x0119 last=0 (total AXI W=112)
# [DEBUG @19692000] SCOPE->RW: data=0x011a last=0 (total AXI W=112)
# [DEBUG @19692000] AXI W #112: data=0x00d900d800d700d6 strb=0xff last=0
# [DEBUG @19700000] AXI W #113: data=0x00dd00dc00db00da strb=0xff last=0
# [DEBUG @19700000] SCOPE->RW: data=0x011b last=0 (total AXI W=114)
# [DEBUG @19708000] SCOPE->RW: data=0x011c last=0 (total AXI W=114)
# [DEBUG @19708000] AXI W #114: data=0x00e100e000df00de strb=0xff last=0
# [DEBUG @19716000] AXI W #115: data=0x00e500e400e300e2 strb=0xff last=0
# [DEBUG @19716000] SCOPE->RW: data=0x011d last=0 (total AXI W=116)
# [DEBUG @19724000] SCOPE->RW: data=0x011e last=0 (total AXI W=116)
# [DEBUG @19724000] AXI W #116: data=0x00e900e800e700e6 strb=0xff last=0
# [DEBUG @19732000] AXI W #117: data=0x00ed00ec00eb00ea strb=0xff last=0
# [DEBUG @19732000] SCOPE->RW: data=0x011f last=0 (total AXI W=118)
# [DEBUG @19740000] SCOPE->RW: data=0x0120 last=0 (total AXI W=118)
# [DEBUG @19740000] AXI W #118: data=0x00f100f000ef00ee strb=0xff last=0
# [DEBUG @19748000] AXI W #119: data=0x00f500f400f300f2 strb=0xff last=0
# [DEBUG @19748000] SCOPE->RW: data=0x0121 last=0 (total AXI W=120)
# [DEBUG @19756000] SCOPE->RW: data=0x0122 last=0 (total AXI W=120)
# [DEBUG @19756000] AXI W #120: data=0x00f900f800f700f6 strb=0xff last=0
# [DEBUG @19764000] AXI W #121: data=0x00fd00fc00fb00fa strb=0xff last=0
# [DEBUG @19764000] SCOPE->RW: data=0x0123 last=0 (total AXI W=122)
# [DEBUG @19772000] SCOPE->RW: data=0x0124 last=0 (total AXI W=122)
# [DEBUG @19772000] AXI W #122: data=0x0101010000ff00fe strb=0xff last=0
# [DEBUG @19780000] AXI W #123: data=0x0105010401030102 strb=0xff last=0
# [DEBUG @19780000] SCOPE->RW: data=0x0125 last=0 (total AXI W=124)
# [DEBUG @19788000] SCOPE->RW: data=0x0126 last=0 (total AXI W=124)
# [DEBUG @19788000] AXI W #124: data=0x0109010801070106 strb=0xff last=0
# [DEBUG @19796000] AXI W #125: data=0x010d010c010b010a strb=0xff last=0
# [DEBUG @19796000] SCOPE->RW: data=0x0127 last=0 (total AXI W=126)
# [DEBUG @19804000] SCOPE->RW: data=0x0128 last=0 (total AXI W=126)
# [DEBUG @19804000] AXI W #126: data=0x01110110010f010e strb=0xff last=0
# [DEBUG @19812000] AXI W #127: data=0x0115011401130112 strb=0xff last=1
# [DEBUG @19812000] SCOPE->RW: data=0x0129 last=0 (total AXI W=128)
# [DEBUG @19820000] SCOPE->RW: data=0x012a last=0 (total AXI W=128)
# [DEBUG @19828000] SCOPE->RW: data=0x012b last=1 (total AXI W=128)
# [DEBUG @19836000] scope_status.done: 0 -> 1
# [DEBUG] send_ramp: scope.done=1, terminando envío en i=305
# [DEBUG] wait_capture_done: Esperando scope_status.done...
# [DEBUG] scope_status.done=1! sample_count=150
# [DEBUG] wait_capture_done: Esperando RAM Writer...
# [DEBUG] wait phase2 cnt=0: scope_tvalid=0 wvalid=0 bvalid=0
# [DEBUG] wait_capture_done: RAM Writer terminó
# [TB] INFO: trig_blocking - verificacion manual requerida
# 
# ========== TEST: early_trigger ==========
# [DEBUG @21804000] scope_status.triggered: 1 -> 0
# [DEBUG @21804000] scope_status.done: 1 -> 0
# [DEBUG] arm_scope: arm=1, esperando que scope_status.armed=1...
# [DEBUG @21956000] scope_status.armed: 0 -> 1
# [DEBUG] arm_scope: scope_status.armed=1
# [DEBUG @22116000] scope_status.armed: 1 -> 0
# [DEBUG @22116000] scope_status.triggered: 0 -> 1
# [DEBUG @22276000] CH0->TRIG #1500: data=0x0022
# [DEBUG @22316000] TRIG->SCOPE #1500: data=0x0025
# [DEBUG @22524000] SCOPE->RW: data=0x0000 last=0 (total AXI W=128)
# [DEBUG @22532000] SCOPE->RW: data=0xxxxx last=0 (total AXI W=128)
# [DEBUG @22540000] SCOPE->RW: data=0xxxxx last=0 (total AXI W=128)
# [DEBUG @22548000] SCOPE->RW: data=0xxxxx last=0 (total AXI W=128)
# [DEBUG @22556000] SCOPE->RW: data=0xxxxx last=0 (total AXI W=128)
# [DEBUG @22564000] SCOPE->RW: data=0xxxxx last=0 (total AXI W=128)
# [DEBUG @22572000] SCOPE->RW: data=0xxxxx last=0 (total AXI W=128)
# [DEBUG @22580000] SCOPE->RW: data=0xxxxx last=0 (total AXI W=128)
# [DEBUG @22588000] SCOPE->RW: data=0xxxxx last=0 (total AXI W=128)
# [DEBUG @22596000] SCOPE->RW: data=0xxxxx last=0 (total AXI W=128)
# [DEBUG @22604000] SCOPE->RW: data=0xxxxx last=0 (total AXI W=128)
# [DEBUG @22612000] SCOPE->RW: data=0xxxxx last=0 (total AXI W=128)
# [DEBUG @22620000] SCOPE->RW: data=0xxxxx last=0 (total AXI W=128)
# [DEBUG @22628000] SCOPE->RW: data=0xxxxx last=0 (total AXI W=128)
# [DEBUG @22636000] SCOPE->RW: data=0xxxxx last=0 (total AXI W=128)
# [DEBUG @22644000] SCOPE->RW: data=0xxxxx last=0 (total AXI W=128)
# [DEBUG @22652000] SCOPE->RW: data=0xxxxx last=0 (total AXI W=128)
# [DEBUG @22660000] SCOPE->RW: data=0xxxxx last=0 (total AXI W=128)
# [DEBUG @22668000] SCOPE->RW: data=0xxxxx last=0 (total AXI W=128)
# [DEBUG @22676000] SCOPE->RW: data=0xxxxx last=0 (total AXI W=128)
# [DEBUG @22684000] SCOPE->RW: data=0xxxxx last=0 (total AXI W=128)
# [DEBUG @22692000] SCOPE->RW: data=0xxxxx last=0 (total AXI W=128)
# [DEBUG @22700000] SCOPE->RW: data=0xxxxx last=0 (total AXI W=128)
# [DEBUG @22708000] SCOPE->RW: data=0xxxxx last=0 (total AXI W=128)
# [DEBUG @22716000] SCOPE->RW: data=0xxxxx last=0 (total AXI W=128)
# [DEBUG @22724000] SCOPE->RW: data=0xxxxx last=0 (total AXI W=128)
# [DEBUG @22732000] SCOPE->RW: data=0xxxxx last=0 (total AXI W=128)
# [DEBUG @22740000] SCOPE->RW: data=0xxxxx last=0 (total AXI W=128)
# [DEBUG @22748000] SCOPE->RW: data=0xxxxx last=0 (total AXI W=128)
# [DEBUG @22756000] SCOPE->RW: data=0xxxxx last=0 (total AXI W=128)
# [DEBUG @22764000] SCOPE->RW: data=0xxxxx last=0 (total AXI W=128)
# [DEBUG @22772000] SCOPE->RW: data=0xxxxx last=0 (total AXI W=128)
# [DEBUG @22780000] SCOPE->RW: data=0xxxxx last=0 (total AXI W=128)
# [DEBUG @22788000] SCOPE->RW: data=0xxxxx last=0 (total AXI W=128)
# [DEBUG @22796000] SCOPE->RW: data=0xxxxx last=0 (total AXI W=128)
# [DEBUG @22804000] SCOPE->RW: data=0xxxxx last=0 (total AXI W=128)
# [DEBUG @22812000] SCOPE->RW: data=0xxxxx last=0 (total AXI W=128)
# [DEBUG @22820000] SCOPE->RW: data=0xxxxx last=0 (total AXI W=128)
# [DEBUG @22828000] SCOPE->RW: data=0xxxxx last=0 (total AXI W=128)
# [DEBUG @22836000] SCOPE->RW: data=0xxxxx last=0 (total AXI W=128)
# [DEBUG @22844000] SCOPE->RW: data=0xxxxx last=0 (total AXI W=128)
# [DEBUG @22852000] SCOPE->RW: data=0xxxxx last=0 (total AXI W=128)
# [DEBUG @22860000] SCOPE->RW: data=0xxxxx last=0 (total AXI W=128)
# [DEBUG @22868000] SCOPE->RW: data=0xxxxx last=0 (total AXI W=128)
# [DEBUG @22876000] SCOPE->RW: data=0xxxxx last=0 (total AXI W=128)
# [DEBUG @22884000] SCOPE->RW: data=0xxxxx last=0 (total AXI W=128)
# [DEBUG @22892000] SCOPE->RW: data=0xxxxx last=0 (total AXI W=128)
# [DEBUG @22900000] SCOPE->RW: data=0xxxxx last=0 (total AXI W=128)
# [DEBUG @22908000] SCOPE->RW: data=0xxxxx last=0 (total AXI W=128)
# [DEBUG @22916000] SCOPE->RW: data=0xxxxx last=0 (total AXI W=128)
# [DEBUG @22924000] SCOPE->RW: data=0xxxxx last=0 (total AXI W=128)
# [DEBUG @22932000] SCOPE->RW: data=0xxxxx last=0 (total AXI W=128)
# [DEBUG @22940000] SCOPE->RW: data=0xxxxx last=0 (total AXI W=128)
# [DEBUG @22948000] SCOPE->RW: data=0xxxxx last=0 (total AXI W=128)
# [DEBUG @22956000] SCOPE->RW: data=0xxxxx last=0 (total AXI W=128)
# [DEBUG @22964000] SCOPE->RW: data=0xxxxx last=0 (total AXI W=128)
# [DEBUG @22972000] SCOPE->RW: data=0xxxxx last=0 (total AXI W=128)
# [DEBUG @22980000] SCOPE->RW: data=0xxxxx last=0 (total AXI W=128)
# [DEBUG @22988000] SCOPE->RW: data=0xxxxx last=0 (total AXI W=128)
# [DEBUG @22996000] SCOPE->RW: data=0xxxxx last=0 (total AXI W=128)
# [DEBUG @23004000] SCOPE->RW: data=0xxxxx last=0 (total AXI W=128)
# [DEBUG @23012000] SCOPE->RW: data=0xxxxx last=0 (total AXI W=128)
# [DEBUG @23020000] SCOPE->RW: data=0xxxxx last=0 (total AXI W=128)
# [DEBUG @23028000] SCOPE->RW: data=0xxxxx last=0 (total AXI W=128)
# [DEBUG @23036000] SCOPE->RW: data=0xxxxx last=0 (total AXI W=128)
# [DEBUG @23044000] SCOPE->RW: data=0xxxxx last=0 (total AXI W=128)
# [DEBUG @23052000] SCOPE->RW: data=0xxxxx last=0 (total AXI W=128)
# [DEBUG @23060000] AXI AW: addr=0x10000000 len=15
# [DEBUG @23060000] SCOPE->RW: data=0xxxxx last=0 (total AXI W=128)
# [DEBUG @23068000] SCOPE->RW: data=0xxxxx last=0 (total AXI W=128)
# [DEBUG @23068000] AXI W #128: data=0xxxxxxxxxxxxx0000 strb=0xff last=0
# [DEBUG @23076000] AXI W #129: data=0xxxxxxxxxxxxxxxxx strb=0xff last=0
# [DEBUG @23076000] SCOPE->RW: data=0xxxxx last=0 (total AXI W=130)
# [DEBUG @23084000] SCOPE->RW: data=0xxxxx last=0 (total AXI W=130)
# [DEBUG @23084000] AXI W #130: data=0xxxxxxxxxxxxxxxxx strb=0xff last=0
# [DEBUG @23092000] AXI W #131: data=0xxxxxxxxxxxxxxxxx strb=0xff last=0
# [DEBUG @23092000] SCOPE->RW: data=0xxxxx last=0 (total AXI W=132)
# [DEBUG @23100000] SCOPE->RW: data=0xxxxx last=0 (total AXI W=132)
# [DEBUG @23100000] AXI W #132: data=0xxxxxxxxxxxxxxxxx strb=0xff last=0
# [DEBUG @23108000] AXI W #133: data=0xxxxxxxxxxxxxxxxx strb=0xff last=0
# [DEBUG @23108000] SCOPE->RW: data=0xxxxx last=0 (total AXI W=134)
# [DEBUG @23116000] SCOPE->RW: data=0xxxxx last=0 (total AXI W=134)
# [DEBUG @23116000] AXI W #134: data=0xxxxxxxxxxxxxxxxx strb=0xff last=0
# [DEBUG @23124000] AXI W #135: data=0xxxxxxxxxxxxxxxxx strb=0xff last=0
# [DEBUG @23124000] SCOPE->RW: data=0xxxxx last=0 (total AXI W=136)
# [DEBUG @23132000] SCOPE->RW: data=0xxxxx last=0 (total AXI W=136)
# [DEBUG @23132000] AXI W #136: data=0xxxxxxxxxxxxxxxxx strb=0xff last=0
# [DEBUG @23140000] AXI W #137: data=0xxxxxxxxxxxxxxxxx strb=0xff last=0
# [DEBUG @23140000] SCOPE->RW: data=0xxxxx last=0 (total AXI W=138)
# [DEBUG @23148000] SCOPE->RW: data=0xxxxx last=0 (total AXI W=138)
# [DEBUG @23148000] AXI W #138: data=0xxxxxxxxxxxxxxxxx strb=0xff last=0
# [DEBUG @23156000] AXI W #139: data=0xxxxxxxxxxxxxxxxx strb=0xff last=0
# [DEBUG @23156000] SCOPE->RW: data=0xxxxx last=0 (total AXI W=140)
# [DEBUG @23164000] SCOPE->RW: data=0xxxxx last=0 (total AXI W=140)
# [DEBUG @23164000] AXI W #140: data=0xxxxxxxxxxxxxxxxx strb=0xff last=0
# [DEBUG @23172000] AXI W #141: data=0xxxxxxxxxxxxxxxxx strb=0xff last=0
# [DEBUG @23172000] SCOPE->RW: data=0xxxxx last=0 (total AXI W=142)
# [DEBUG @23180000] SCOPE->RW: data=0xxxxx last=0 (total AXI W=142)
# [DEBUG @23180000] AXI W #142: data=0xxxxxxxxxxxxxxxxx strb=0xff last=0
# [DEBUG @23188000] AXI W #143: data=0xxxxxxxxxxxxxxxxx strb=0xff last=1
# [DEBUG @23188000] SCOPE->RW: data=0xxxxx last=0 (total AXI W=144)
# [DEBUG @23196000] SCOPE->RW: data=0xxxxx last=0 (total AXI W=144)
# [DEBUG @23204000] SCOPE->RW: data=0xxxxx last=0 (total AXI W=144)
# [DEBUG @23212000] SCOPE->RW: data=0xxxxx last=0 (total AXI W=144)
# [DEBUG @23220000] SCOPE->RW: data=0xxxxx last=0 (total AXI W=144)
# [DEBUG @23228000] SCOPE->RW: data=0xxxxx last=0 (total AXI W=144)
# [DEBUG @23236000] SCOPE->RW: data=0xxxxx last=0 (total AXI W=144)
# [DEBUG @23244000] SCOPE->RW: data=0x0000 last=0 (total AXI W=144)
# [DEBUG @23252000] SCOPE->RW: data=0x0001 last=0 (total AXI W=144)
# [DEBUG @23260000] SCOPE->RW: data=0x0002 last=0 (total AXI W=144)
# [DEBUG @23268000] SCOPE->RW: data=0x0003 last=0 (total AXI W=144)
# [DEBUG @23276000] SCOPE->RW: data=0x0004 last=0 (total AXI W=144)
# [DEBUG @23284000] SCOPE->RW: data=0x0005 last=0 (total AXI W=144)
# [DEBUG @23292000] SCOPE->RW: data=0x0006 last=0 (total AXI W=144)
# [DEBUG @23300000] SCOPE->RW: data=0x0007 last=0 (total AXI W=144)
# [DEBUG @23308000] SCOPE->RW: data=0x0008 last=0 (total AXI W=144)
# [DEBUG @23316000] SCOPE->RW: data=0x0009 last=0 (total AXI W=144)
# [DEBUG @23324000] SCOPE->RW: data=0x000a last=0 (total AXI W=144)
# [DEBUG @23332000] SCOPE->RW: data=0x000b last=0 (total AXI W=144)
# [DEBUG @23340000] SCOPE->RW: data=0x000c last=0 (total AXI W=144)
# [DEBUG @23348000] SCOPE->RW: data=0x000d last=0 (total AXI W=144)
# [DEBUG @23356000] SCOPE->RW: data=0x000e last=0 (total AXI W=144)
# [DEBUG @23364000] SCOPE->RW: data=0x000f last=0 (total AXI W=144)
# [DEBUG @23372000] SCOPE->RW: data=0x0010 last=0 (total AXI W=144)
# [DEBUG @23380000] SCOPE->RW: data=0x0011 last=0 (total AXI W=144)
# [DEBUG @23388000] SCOPE->RW: data=0x0012 last=0 (total AXI W=144)
# [DEBUG @23396000] SCOPE->RW: data=0x0013 last=0 (total AXI W=144)
# [DEBUG @23404000] SCOPE->RW: data=0x0014 last=0 (total AXI W=144)
# [DEBUG @23412000] SCOPE->RW: data=0x0015 last=0 (total AXI W=144)
# [DEBUG @23420000] SCOPE->RW: data=0x0016 last=0 (total AXI W=144)
# [DEBUG @23428000] SCOPE->RW: data=0x0017 last=0 (total AXI W=144)
# [DEBUG @23436000] SCOPE->RW: data=0x0018 last=0 (total AXI W=144)
# [DEBUG @23444000] SCOPE->RW: data=0x0019 last=0 (total AXI W=144)
# [DEBUG @23452000] SCOPE->RW: data=0x001a last=0 (total AXI W=144)
# [DEBUG @23460000] SCOPE->RW: data=0x001b last=0 (total AXI W=144)
# [DEBUG @23468000] SCOPE->RW: data=0x001c last=0 (total AXI W=144)
# [DEBUG @23476000] SCOPE->RW: data=0x001d last=0 (total AXI W=144)
# [DEBUG @23484000] SCOPE->RW: data=0x001e last=0 (total AXI W=144)
# [DEBUG @23492000] SCOPE->RW: data=0x001f last=0 (total AXI W=144)
# [DEBUG @23500000] SCOPE->RW: data=0x0020 last=0 (total AXI W=144)
# [DEBUG @23508000] SCOPE->RW: data=0x0021 last=0 (total AXI W=144)
# [DEBUG @23516000] SCOPE->RW: data=0x0022 last=0 (total AXI W=144)
# [DEBUG @23524000] SCOPE->RW: data=0x0023 last=0 (total AXI W=144)
# [DEBUG @23532000] SCOPE->RW: data=0x0024 last=0 (total AXI W=144)
# [DEBUG @23540000] SCOPE->RW: data=0x0025 last=0 (total AXI W=144)
# [DEBUG @23548000] SCOPE->RW: data=0x0026 last=0 (total AXI W=144)
# [DEBUG @23556000] SCOPE->RW: data=0x0027 last=0 (total AXI W=144)
# [DEBUG @23564000] SCOPE->RW: data=0x0028 last=0 (total AXI W=144)
# [DEBUG @23572000] AXI AW: addr=0x10000080 len=15
# [DEBUG @23572000] SCOPE->RW: data=0x0029 last=0 (total AXI W=144)
# [DEBUG @23580000] SCOPE->RW: data=0x002a last=0 (total AXI W=144)
# [DEBUG @23580000] AXI W #144: data=0xxxxxxxxxxxxxxxxx strb=0xff last=0
# [DEBUG @23588000] AXI W #145: data=0xxxxxxxxxxxxxxxxx strb=0xff last=0
# [DEBUG @23588000] SCOPE->RW: data=0x002b last=0 (total AXI W=146)
# [DEBUG @23596000] SCOPE->RW: data=0x002c last=0 (total AXI W=146)
# [DEBUG @23596000] AXI W #146: data=0xxxxxxxxxxxxxxxxx strb=0xff last=0
# [DEBUG @23604000] AXI W #147: data=0xxxxxxxxxxxxxxxxx strb=0xff last=0
# [DEBUG @23604000] SCOPE->RW: data=0x002d last=0 (total AXI W=148)
# [DEBUG @23612000] SCOPE->RW: data=0x002e last=0 (total AXI W=148)
# [DEBUG @23612000] AXI W #148: data=0xxxxxxxxxxxxxxxxx strb=0xff last=0
# [DEBUG @23620000] AXI W #149: data=0xxxxxxxxxxxxxxxxx strb=0xff last=0
# [DEBUG @23620000] SCOPE->RW: data=0x002f last=0 (total AXI W=150)
# [DEBUG @23628000] SCOPE->RW: data=0x0030 last=0 (total AXI W=150)
# [DEBUG @23628000] AXI W #150: data=0x00010000xxxxxxxx strb=0xff last=0
# [DEBUG @23636000] AXI W #151: data=0x0005000400030002 strb=0xff last=0
# [DEBUG @23636000] SCOPE->RW: data=0x0031 last=0 (total AXI W=152)
# [DEBUG @23644000] SCOPE->RW: data=0x0032 last=0 (total AXI W=152)
# [DEBUG @23644000] AXI W #152: data=0x0009000800070006 strb=0xff last=0
# [DEBUG @23652000] AXI W #153: data=0x000d000c000b000a strb=0xff last=0
# [DEBUG @23652000] SCOPE->RW: data=0x0033 last=0 (total AXI W=154)
# [DEBUG @23660000] SCOPE->RW: data=0x0034 last=0 (total AXI W=154)
# [DEBUG @23660000] AXI W #154: data=0x00110010000f000e strb=0xff last=0
# [DEBUG @23668000] AXI W #155: data=0x0015001400130012 strb=0xff last=0
# [DEBUG @23668000] SCOPE->RW: data=0x0035 last=0 (total AXI W=156)
# [DEBUG @23676000] SCOPE->RW: data=0x0036 last=0 (total AXI W=156)
# [DEBUG @23676000] AXI W #156: data=0x0019001800170016 strb=0xff last=0
# [DEBUG @23684000] AXI W #157: data=0x001d001c001b001a strb=0xff last=0
# [DEBUG @23684000] SCOPE->RW: data=0x0037 last=0 (total AXI W=158)
# [DEBUG @23692000] SCOPE->RW: data=0x0038 last=0 (total AXI W=158)
# [DEBUG @23692000] AXI W #158: data=0x00210020001f001e strb=0xff last=0
# [DEBUG @23700000] AXI W #159: data=0x0025002400230022 strb=0xff last=1
# [DEBUG @23700000] SCOPE->RW: data=0x0039 last=0 (total AXI W=160)
# [DEBUG @23708000] SCOPE->RW: data=0x003a last=0 (total AXI W=160)
# [DEBUG @23716000] SCOPE->RW: data=0x003b last=1 (total AXI W=160)
# [DEBUG @23724000] scope_status.done: 0 -> 1
# [DEBUG] send_ramp: scope.done=1, terminando envío en i=65
# [DEBUG] wait_capture_done: Esperando scope_status.done...
# [DEBUG] scope_status.done=1! sample_count=150
# [DEBUG] wait_capture_done: Esperando RAM Writer...
# [DEBUG] wait phase2 cnt=0: scope_tvalid=0 wvalid=0 bvalid=0
# [DEBUG] wait_capture_done: RAM Writer terminó
# [TB] INFO: early_trigger - verificando estructura
# [TB] PASSED: early_trigger (datos escritos: 256 bytes)
# 
# 
# +============================================================+
# |                      RESUMEN                               |
# +============================================================+
# |  Tests ejecutados: 5                                        |
# |  Passed:           2                                        |
# |  Failed:           3                                        |
# +============================================================+
# |  >>> SOME TESTS FAILED                                    |
# +============================================================+
# 
# 
# ** Note: $finish    : ../tb/integration/tb_acquisition_chain.sv(810)
#    Time: 24532 ns  Iteration: 1  Instance: /tb_acquisition_chain
# End time: 12:01:55 on Apr 10,2026, Elapsed time: 0:00:06
# Errors: 0, Warnings: 0
